
time (s)          v("VIN" ?resul    v("VOUT" ?resu    getData("VDD:p

 0.000000e+00      2.500000e+00      8.453503e-01     -2.682317e-04     
 2.000000e-06      2.500012e+00      8.453648e-01     -2.682356e-04     
 4.000000e-06      2.500025e+00      8.453797e-01     -2.682387e-04     
 6.000000e-06      2.500037e+00      8.453946e-01     -2.682419e-04     
 8.000000e-06      2.500050e+00      8.454095e-01     -2.682451e-04     
 1.000000e-05      2.500062e+00      8.454243e-01     -2.682482e-04     
 1.200000e-05      2.500075e+00      8.454392e-01     -2.682514e-04     
 1.400000e-05      2.500087e+00      8.454540e-01     -2.682545e-04     
 1.600000e-05      2.500100e+00      8.454688e-01     -2.682577e-04     
 1.800000e-05      2.500112e+00      8.454836e-01     -2.682608e-04     
 2.000000e-05      2.500125e+00      8.454983e-01     -2.682640e-04     
 2.200000e-05      2.500137e+00      8.455131e-01     -2.682671e-04     
 2.400000e-05      2.500150e+00      8.455278e-01     -2.682702e-04     
 2.600000e-05      2.500162e+00      8.455425e-01     -2.682733e-04     
 2.800000e-05      2.500175e+00      8.455571e-01     -2.682765e-04     
 3.000000e-05      2.500187e+00      8.455717e-01     -2.682796e-04     
 3.200000e-05      2.500199e+00      8.455863e-01     -2.682827e-04     
 3.400000e-05      2.500212e+00      8.456008e-01     -2.682857e-04     
 3.600000e-05      2.500224e+00      8.456153e-01     -2.682888e-04     
 3.800000e-05      2.500236e+00      8.456298e-01     -2.682919e-04     
 4.000000e-05      2.500248e+00      8.456442e-01     -2.682950e-04     
 4.200000e-05      2.500260e+00      8.456585e-01     -2.682980e-04     
 4.400000e-05      2.500272e+00      8.456728e-01     -2.683010e-04     
 4.600000e-05      2.500285e+00      8.456871e-01     -2.683041e-04     
 4.800000e-05      2.500297e+00      8.457013e-01     -2.683071e-04     
 5.000000e-05      2.500309e+00      8.457154e-01     -2.683101e-04     
 5.200000e-05      2.500320e+00      8.457295e-01     -2.683131e-04     
 5.400000e-05      2.500332e+00      8.457435e-01     -2.683161e-04     
 5.600000e-05      2.500344e+00      8.457575e-01     -2.683190e-04     
 5.800000e-05      2.500356e+00      8.457714e-01     -2.683220e-04     
 6.000000e-05      2.500368e+00      8.457852e-01     -2.683249e-04     
 6.200000e-05      2.500379e+00      8.457989e-01     -2.683278e-04     
 6.400000e-05      2.500391e+00      8.458126e-01     -2.683307e-04     
 6.600000e-05      2.500402e+00      8.458262e-01     -2.683336e-04     
 6.800000e-05      2.500414e+00      8.458397e-01     -2.683365e-04     
 7.000000e-05      2.500425e+00      8.458532e-01     -2.683393e-04     
 7.200000e-05      2.500437e+00      8.458665e-01     -2.683422e-04     
 7.400000e-05      2.500448e+00      8.458798e-01     -2.683450e-04     
 7.600000e-05      2.500459e+00      8.458930e-01     -2.683478e-04     
 7.800000e-05      2.500470e+00      8.459061e-01     -2.683506e-04     
 8.000000e-05      2.500481e+00      8.459191e-01     -2.683533e-04     
 8.200000e-05      2.500492e+00      8.459320e-01     -2.683561e-04     
 8.400000e-05      2.500503e+00      8.459449e-01     -2.683588e-04     
 8.600000e-05      2.500514e+00      8.459576e-01     -2.683615e-04     
 8.800000e-05      2.500525e+00      8.459702e-01     -2.683642e-04     
 9.000000e-05      2.500535e+00      8.459827e-01     -2.683668e-04     
 9.200000e-05      2.500546e+00      8.459952e-01     -2.683695e-04     
 9.400000e-05      2.500556e+00      8.460075e-01     -2.683721e-04     
 9.600000e-05      2.500567e+00      8.460197e-01     -2.683747e-04     
 9.800000e-05      2.500577e+00      8.460318e-01     -2.683772e-04     
 1.000000e-04      2.500587e+00      8.460438e-01     -2.683798e-04     
 1.020000e-04      2.500597e+00      8.460557e-01     -2.683823e-04     
 1.040000e-04      2.500607e+00      8.460675e-01     -2.683848e-04     
 1.060000e-04      2.500617e+00      8.460792e-01     -2.683873e-04     
 1.080000e-04      2.500627e+00      8.460907e-01     -2.683897e-04     
 1.100000e-04      2.500637e+00      8.461021e-01     -2.683921e-04     
 1.120000e-04      2.500647e+00      8.461134e-01     -2.683945e-04     
 1.140000e-04      2.500656e+00      8.461246e-01     -2.683969e-04     
 1.160000e-04      2.500666e+00      8.461357e-01     -2.683993e-04     
 1.180000e-04      2.500675e+00      8.461466e-01     -2.684016e-04     
 1.200000e-04      2.500684e+00      8.461574e-01     -2.684039e-04     
 1.220000e-04      2.500693e+00      8.461681e-01     -2.684061e-04     
 1.240000e-04      2.500702e+00      8.461786e-01     -2.684084e-04     
 1.260000e-04      2.500711e+00      8.461890e-01     -2.684106e-04     
 1.280000e-04      2.500720e+00      8.461993e-01     -2.684127e-04     
 1.300000e-04      2.500728e+00      8.462094e-01     -2.684149e-04     
 1.320000e-04      2.500737e+00      8.462194e-01     -2.684170e-04     
 1.340000e-04      2.500745e+00      8.462293e-01     -2.684191e-04     
 1.360000e-04      2.500754e+00      8.462390e-01     -2.684211e-04     
 1.380000e-04      2.500762e+00      8.462486e-01     -2.684232e-04     
 1.400000e-04      2.500770e+00      8.462580e-01     -2.684252e-04     
 1.420000e-04      2.500778e+00      8.462673e-01     -2.684271e-04     
 1.440000e-04      2.500786e+00      8.462764e-01     -2.684291e-04     
 1.460000e-04      2.500793e+00      8.462854e-01     -2.684310e-04     
 1.480000e-04      2.500801e+00      8.462943e-01     -2.684328e-04     
 1.500000e-04      2.500809e+00      8.463030e-01     -2.684347e-04     
 1.520000e-04      2.500816e+00      8.463115e-01     -2.684365e-04     
 1.540000e-04      2.500823e+00      8.463199e-01     -2.684383e-04     
 1.560000e-04      2.500830e+00      8.463281e-01     -2.684400e-04     
 1.580000e-04      2.500837e+00      8.463362e-01     -2.684417e-04     
 1.600000e-04      2.500844e+00      8.463441e-01     -2.684434e-04     
 1.620000e-04      2.500850e+00      8.463518e-01     -2.684450e-04     
 1.640000e-04      2.500857e+00      8.463594e-01     -2.684466e-04     
 1.660000e-04      2.500863e+00      8.463668e-01     -2.684482e-04     
 1.680000e-04      2.500870e+00      8.463741e-01     -2.684497e-04     
 1.700000e-04      2.500876e+00      8.463812e-01     -2.684512e-04     
 1.720000e-04      2.500882e+00      8.463881e-01     -2.684527e-04     
 1.740000e-04      2.500888e+00      8.463949e-01     -2.684541e-04     
 1.760000e-04      2.500893e+00      8.464015e-01     -2.684555e-04     
 1.780000e-04      2.500899e+00      8.464080e-01     -2.684569e-04     
 1.800000e-04      2.500904e+00      8.464142e-01     -2.684582e-04     
 1.820000e-04      2.500910e+00      8.464203e-01     -2.684595e-04     
 1.840000e-04      2.500915e+00      8.464262e-01     -2.684607e-04     
 1.860000e-04      2.500920e+00      8.464320e-01     -2.684619e-04     
 1.880000e-04      2.500925e+00      8.464376e-01     -2.684631e-04     
 1.900000e-04      2.500929e+00      8.464430e-01     -2.684643e-04     
 1.920000e-04      2.500934e+00      8.464482e-01     -2.684654e-04     
 1.940000e-04      2.500938e+00      8.464532e-01     -2.684664e-04     
 1.960000e-04      2.500942e+00      8.464581e-01     -2.684674e-04     
 1.980000e-04      2.500947e+00      8.464628e-01     -2.684684e-04     
 2.000000e-04      2.500951e+00      8.464673e-01     -2.684694e-04     
 2.020000e-04      2.500954e+00      8.464717e-01     -2.684703e-04     
 2.040000e-04      2.500958e+00      8.464758e-01     -2.684712e-04     
 2.060000e-04      2.500962e+00      8.464798e-01     -2.684720e-04     
 2.080000e-04      2.500965e+00      8.464836e-01     -2.684728e-04     
 2.100000e-04      2.500968e+00      8.464872e-01     -2.684736e-04     
 2.120000e-04      2.500971e+00      8.464906e-01     -2.684743e-04     
 2.140000e-04      2.500974e+00      8.464939e-01     -2.684750e-04     
 2.160000e-04      2.500977e+00      8.464970e-01     -2.684756e-04     
 2.180000e-04      2.500979e+00      8.464999e-01     -2.684762e-04     
 2.200000e-04      2.500982e+00      8.465026e-01     -2.684768e-04     
 2.220000e-04      2.500984e+00      8.465051e-01     -2.684773e-04     
 2.240000e-04      2.500986e+00      8.465074e-01     -2.684778e-04     
 2.260000e-04      2.500988e+00      8.465095e-01     -2.684782e-04     
 2.280000e-04      2.500990e+00      8.465115e-01     -2.684786e-04     
 2.300000e-04      2.500992e+00      8.465133e-01     -2.684790e-04     
 2.320000e-04      2.500993e+00      8.465149e-01     -2.684793e-04     
 2.340000e-04      2.500994e+00      8.465163e-01     -2.684796e-04     
 2.360000e-04      2.500996e+00      8.465175e-01     -2.684799e-04     
 2.380000e-04      2.500997e+00      8.465185e-01     -2.684801e-04     
 2.400000e-04      2.500998e+00      8.465194e-01     -2.684803e-04     
 2.420000e-04      2.500998e+00      8.465200e-01     -2.684804e-04     
 2.440000e-04      2.500999e+00      8.465205e-01     -2.684805e-04     
 2.460000e-04      2.500999e+00      8.465208e-01     -2.684805e-04     
 2.480000e-04      2.500999e+00      8.465208e-01     -2.684805e-04     
 2.500000e-04      2.501000e+00      8.465208e-01     -2.684805e-04     
 2.520000e-04      2.500999e+00      8.465205e-01     -2.684804e-04     
 2.540000e-04      2.500999e+00      8.465200e-01     -2.684803e-04     
 2.560000e-04      2.500999e+00      8.465193e-01     -2.684802e-04     
 2.580000e-04      2.500998e+00      8.465185e-01     -2.684800e-04     
 2.600000e-04      2.500998e+00      8.465175e-01     -2.684798e-04     
 2.620000e-04      2.500997e+00      8.465162e-01     -2.684795e-04     
 2.640000e-04      2.500996e+00      8.465148e-01     -2.684792e-04     
 2.660000e-04      2.500994e+00      8.465132e-01     -2.684788e-04     
 2.680000e-04      2.500993e+00      8.465115e-01     -2.684785e-04     
 2.700000e-04      2.500992e+00      8.465095e-01     -2.684780e-04     
 2.720000e-04      2.500990e+00      8.465074e-01     -2.684776e-04     
 2.740000e-04      2.500988e+00      8.465050e-01     -2.684771e-04     
 2.760000e-04      2.500986e+00      8.465025e-01     -2.684765e-04     
 2.780000e-04      2.500984e+00      8.464998e-01     -2.684759e-04     
 2.800000e-04      2.500982e+00      8.464969e-01     -2.684753e-04     
 2.820000e-04      2.500979e+00      8.464938e-01     -2.684746e-04     
 2.840000e-04      2.500977e+00      8.464906e-01     -2.684739e-04     
 2.860000e-04      2.500974e+00      8.464871e-01     -2.684732e-04     
 2.880000e-04      2.500971e+00      8.464835e-01     -2.684724e-04     
 2.900000e-04      2.500968e+00      8.464797e-01     -2.684716e-04     
 2.920000e-04      2.500965e+00      8.464757e-01     -2.684708e-04     
 2.940000e-04      2.500962e+00      8.464716e-01     -2.684699e-04     
 2.960000e-04      2.500958e+00      8.464672e-01     -2.684689e-04     
 2.980000e-04      2.500954e+00      8.464627e-01     -2.684680e-04     
 3.000000e-04      2.500951e+00      8.464580e-01     -2.684670e-04     
 3.020000e-04      2.500947e+00      8.464531e-01     -2.684659e-04     
 3.040000e-04      2.500942e+00      8.464481e-01     -2.684648e-04     
 3.060000e-04      2.500938e+00      8.464428e-01     -2.684637e-04     
 3.080000e-04      2.500934e+00      8.464374e-01     -2.684626e-04     
 3.100000e-04      2.500929e+00      8.464319e-01     -2.684614e-04     
 3.120000e-04      2.500925e+00      8.464261e-01     -2.684601e-04     
 3.140000e-04      2.500920e+00      8.464202e-01     -2.684589e-04     
 3.160000e-04      2.500915e+00      8.464141e-01     -2.684576e-04     
 3.180000e-04      2.500910e+00      8.464078e-01     -2.684562e-04     
 3.200000e-04      2.500904e+00      8.464014e-01     -2.684548e-04     
 3.220000e-04      2.500899e+00      8.463948e-01     -2.684534e-04     
 3.240000e-04      2.500893e+00      8.463880e-01     -2.684520e-04     
 3.260000e-04      2.500888e+00      8.463811e-01     -2.684505e-04     
 3.280000e-04      2.500882e+00      8.463740e-01     -2.684490e-04     
 3.300000e-04      2.500876e+00      8.463667e-01     -2.684474e-04     
 3.320000e-04      2.500870e+00      8.463593e-01     -2.684458e-04     
 3.340000e-04      2.500863e+00      8.463517e-01     -2.684442e-04     
 3.360000e-04      2.500857e+00      8.463439e-01     -2.684426e-04     
 3.380000e-04      2.500850e+00      8.463360e-01     -2.684409e-04     
 3.400000e-04      2.500844e+00      8.463279e-01     -2.684392e-04     
 3.420000e-04      2.500837e+00      8.463197e-01     -2.684374e-04     
 3.440000e-04      2.500830e+00      8.463113e-01     -2.684356e-04     
 3.460000e-04      2.500823e+00      8.463028e-01     -2.684338e-04     
 3.480000e-04      2.500816e+00      8.462941e-01     -2.684319e-04     
 3.500000e-04      2.500809e+00      8.462852e-01     -2.684301e-04     
 3.520000e-04      2.500801e+00      8.462763e-01     -2.684281e-04     
 3.540000e-04      2.500793e+00      8.462671e-01     -2.684262e-04     
 3.560000e-04      2.500786e+00      8.462578e-01     -2.684242e-04     
 3.580000e-04      2.500778e+00      8.462484e-01     -2.684222e-04     
 3.600000e-04      2.500770e+00      8.462388e-01     -2.684202e-04     
 3.620000e-04      2.500762e+00      8.462291e-01     -2.684181e-04     
 3.640000e-04      2.500754e+00      8.462192e-01     -2.684160e-04     
 3.660000e-04      2.500745e+00      8.462092e-01     -2.684138e-04     
 3.680000e-04      2.500737e+00      8.461991e-01     -2.684117e-04     
 3.700000e-04      2.500728e+00      8.461888e-01     -2.684095e-04     
 3.720000e-04      2.500720e+00      8.461784e-01     -2.684073e-04     
 3.740000e-04      2.500711e+00      8.461679e-01     -2.684050e-04     
 3.760000e-04      2.500702e+00      8.461572e-01     -2.684028e-04     
 3.780000e-04      2.500693e+00      8.461464e-01     -2.684005e-04     
 3.800000e-04      2.500684e+00      8.461355e-01     -2.683981e-04     
 3.820000e-04      2.500675e+00      8.461244e-01     -2.683958e-04     
 3.840000e-04      2.500666e+00      8.461132e-01     -2.683934e-04     
 3.860000e-04      2.500656e+00      8.461019e-01     -2.683910e-04     
 3.880000e-04      2.500647e+00      8.460905e-01     -2.683885e-04     
 3.900000e-04      2.500637e+00      8.460789e-01     -2.683861e-04     
 3.920000e-04      2.500627e+00      8.460673e-01     -2.683836e-04     
 3.940000e-04      2.500617e+00      8.460555e-01     -2.683811e-04     
 3.960000e-04      2.500607e+00      8.460436e-01     -2.683786e-04     
 3.980000e-04      2.500597e+00      8.460316e-01     -2.683760e-04     
 4.000000e-04      2.500587e+00      8.460195e-01     -2.683734e-04     
 4.020000e-04      2.500577e+00      8.460073e-01     -2.683708e-04     
 4.040000e-04      2.500567e+00      8.459950e-01     -2.683682e-04     
 4.060000e-04      2.500556e+00      8.459825e-01     -2.683656e-04     
 4.080000e-04      2.500546e+00      8.459700e-01     -2.683629e-04     
 4.100000e-04      2.500535e+00      8.459574e-01     -2.683602e-04     
 4.120000e-04      2.500525e+00      8.459446e-01     -2.683575e-04     
 4.140000e-04      2.500514e+00      8.459318e-01     -2.683548e-04     
 4.160000e-04      2.500503e+00      8.459189e-01     -2.683520e-04     
 4.180000e-04      2.500492e+00      8.459059e-01     -2.683492e-04     
 4.200000e-04      2.500481e+00      8.458928e-01     -2.683464e-04     
 4.220000e-04      2.500470e+00      8.458796e-01     -2.683436e-04     
 4.240000e-04      2.500459e+00      8.458663e-01     -2.683408e-04     
 4.260000e-04      2.500448e+00      8.458529e-01     -2.683380e-04     
 4.280000e-04      2.500437e+00      8.458395e-01     -2.683351e-04     
 4.300000e-04      2.500425e+00      8.458260e-01     -2.683322e-04     
 4.320000e-04      2.500414e+00      8.458124e-01     -2.683293e-04     
 4.340000e-04      2.500402e+00      8.457987e-01     -2.683264e-04     
 4.360000e-04      2.500391e+00      8.457850e-01     -2.683235e-04     
 4.380000e-04      2.500379e+00      8.457712e-01     -2.683206e-04     
 4.400000e-04      2.500368e+00      8.457573e-01     -2.683176e-04     
 4.420000e-04      2.500356e+00      8.457433e-01     -2.683146e-04     
 4.440000e-04      2.500344e+00      8.457293e-01     -2.683116e-04     
 4.460000e-04      2.500332e+00      8.457152e-01     -2.683087e-04     
 4.480000e-04      2.500320e+00      8.457011e-01     -2.683056e-04     
 4.500000e-04      2.500309e+00      8.456869e-01     -2.683026e-04     
 4.520000e-04      2.500297e+00      8.456726e-01     -2.682996e-04     
 4.540000e-04      2.500285e+00      8.456583e-01     -2.682965e-04     
 4.560000e-04      2.500272e+00      8.456440e-01     -2.682935e-04     
 4.580000e-04      2.500260e+00      8.456296e-01     -2.682904e-04     
 4.600000e-04      2.500248e+00      8.456151e-01     -2.682874e-04     
 4.620000e-04      2.500236e+00      8.456007e-01     -2.682843e-04     
 4.640000e-04      2.500224e+00      8.455861e-01     -2.682812e-04     
 4.660000e-04      2.500212e+00      8.455715e-01     -2.682781e-04     
 4.680000e-04      2.500199e+00      8.455569e-01     -2.682750e-04     
 4.700000e-04      2.500187e+00      8.455423e-01     -2.682719e-04     
 4.720000e-04      2.500175e+00      8.455276e-01     -2.682687e-04     
 4.740000e-04      2.500162e+00      8.455129e-01     -2.682656e-04     
 4.760000e-04      2.500150e+00      8.454982e-01     -2.682625e-04     
 4.780000e-04      2.500137e+00      8.454834e-01     -2.682593e-04     
 4.800000e-04      2.500125e+00      8.454686e-01     -2.682562e-04     
 4.820000e-04      2.500112e+00      8.454538e-01     -2.682530e-04     
 4.840000e-04      2.500100e+00      8.454390e-01     -2.682499e-04     
 4.860000e-04      2.500087e+00      8.454242e-01     -2.682467e-04     
 4.880000e-04      2.500075e+00      8.454093e-01     -2.682436e-04     
 4.900000e-04      2.500062e+00      8.453945e-01     -2.682404e-04     
 4.920000e-04      2.500050e+00      8.453796e-01     -2.682373e-04     
 4.940000e-04      2.500037e+00      8.453647e-01     -2.682341e-04     
 4.960000e-04      2.500025e+00      8.453498e-01     -2.682309e-04     
 4.980000e-04      2.500012e+00      8.453350e-01     -2.682278e-04     
 5.000000e-04      2.500000e+00      8.453201e-01     -2.682246e-04     
 5.020000e-04      2.499987e+00      8.453052e-01     -2.682214e-04     
 5.040000e-04      2.499974e+00      8.452903e-01     -2.682183e-04     
 5.060000e-04      2.499962e+00      8.452755e-01     -2.682151e-04     
 5.080000e-04      2.499949e+00      8.452606e-01     -2.682119e-04     
 5.100000e-04      2.499937e+00      8.452458e-01     -2.682088e-04     
 5.120000e-04      2.499924e+00      8.452309e-01     -2.682056e-04     
 5.140000e-04      2.499912e+00      8.452161e-01     -2.682025e-04     
 5.160000e-04      2.499899e+00      8.452013e-01     -2.681993e-04     
 5.180000e-04      2.499887e+00      8.451865e-01     -2.681962e-04     
 5.200000e-04      2.499874e+00      8.451718e-01     -2.681931e-04     
 5.220000e-04      2.499862e+00      8.451571e-01     -2.681899e-04     
 5.240000e-04      2.499849e+00      8.451424e-01     -2.681868e-04     
 5.260000e-04      2.499837e+00      8.451277e-01     -2.681837e-04     
 5.280000e-04      2.499824e+00      8.451131e-01     -2.681806e-04     
 5.300000e-04      2.499812e+00      8.450985e-01     -2.681775e-04     
 5.320000e-04      2.499800e+00      8.450839e-01     -2.681744e-04     
 5.340000e-04      2.499787e+00      8.450694e-01     -2.681713e-04     
 5.360000e-04      2.499775e+00      8.450549e-01     -2.681682e-04     
 5.380000e-04      2.499763e+00      8.450405e-01     -2.681651e-04     
 5.400000e-04      2.499751e+00      8.450261e-01     -2.681621e-04     
 5.420000e-04      2.499739e+00      8.450118e-01     -2.681590e-04     
 5.440000e-04      2.499727e+00      8.449975e-01     -2.681560e-04     
