
time (s)          v("VIN" ?resul    v("VOUT" ?resu    getData("VDD:p

 0.000000e+00      2.500000e+00      2.500000e+00     -3.367376e-05     
 2.000000e-06      2.500012e+00      2.500227e+00     -3.366120e-05     
 4.000000e-06      2.500025e+00      2.500764e+00     -3.364518e-05     
 6.000000e-06      2.500037e+00      2.501651e+00     -3.363159e-05     
 8.000000e-06      2.500050e+00      2.502713e+00     -3.361985e-05     
 1.000000e-05      2.500062e+00      2.503848e+00     -3.360872e-05     
 1.200000e-05      2.500075e+00      2.505016e+00     -3.359773e-05     
 1.400000e-05      2.500087e+00      2.506205e+00     -3.358675e-05     
 1.600000e-05      2.500100e+00      2.507406e+00     -3.357575e-05     
 1.800000e-05      2.500112e+00      2.508618e+00     -3.356473e-05     
 2.000000e-05      2.500125e+00      2.509837e+00     -3.355370e-05     
 2.200000e-05      2.500137e+00      2.511062e+00     -3.354266e-05     
 2.400000e-05      2.500150e+00      2.512291e+00     -3.353161e-05     
 2.600000e-05      2.500162e+00      2.513523e+00     -3.352058e-05     
 2.800000e-05      2.500175e+00      2.514756e+00     -3.350955e-05     
 3.000000e-05      2.500187e+00      2.515991e+00     -3.349853e-05     
 3.200000e-05      2.500199e+00      2.517225e+00     -3.348753e-05     
 3.400000e-05      2.500212e+00      2.518458e+00     -3.347655e-05     
 3.600000e-05      2.500224e+00      2.519691e+00     -3.346559e-05     
 3.800000e-05      2.500236e+00      2.520921e+00     -3.345466e-05     
 4.000000e-05      2.500248e+00      2.522150e+00     -3.344375e-05     
 4.200000e-05      2.500260e+00      2.523376e+00     -3.343287e-05     
 4.400000e-05      2.500272e+00      2.524600e+00     -3.342203e-05     
 4.600000e-05      2.500285e+00      2.525820e+00     -3.341122e-05     
 4.800000e-05      2.500297e+00      2.527037e+00     -3.340044e-05     
 5.000000e-05      2.500309e+00      2.528250e+00     -3.338970e-05     
 5.200000e-05      2.500320e+00      2.529460e+00     -3.337900e-05     
 5.400000e-05      2.500332e+00      2.530665e+00     -3.336834e-05     
 5.600000e-05      2.500344e+00      2.531866e+00     -3.335773e-05     
 5.800000e-05      2.500356e+00      2.533062e+00     -3.334716e-05     
 6.000000e-05      2.500368e+00      2.534254e+00     -3.333663e-05     
 6.200000e-05      2.500379e+00      2.535440e+00     -3.332616e-05     
 6.400000e-05      2.500391e+00      2.536622e+00     -3.331573e-05     
 6.600000e-05      2.500402e+00      2.537798e+00     -3.330536e-05     
 6.800000e-05      2.500414e+00      2.538968e+00     -3.329504e-05     
 7.000000e-05      2.500425e+00      2.540133e+00     -3.328478e-05     
 7.200000e-05      2.500437e+00      2.541291e+00     -3.327457e-05     
 7.400000e-05      2.500448e+00      2.542444e+00     -3.326442e-05     
 7.600000e-05      2.500459e+00      2.543590e+00     -3.325433e-05     
 7.800000e-05      2.500470e+00      2.544730e+00     -3.324430e-05     
 8.000000e-05      2.500481e+00      2.545863e+00     -3.323433e-05     
 8.200000e-05      2.500492e+00      2.546989e+00     -3.322443e-05     
 8.400000e-05      2.500503e+00      2.548108e+00     -3.321460e-05     
 8.600000e-05      2.500514e+00      2.549219e+00     -3.320483e-05     
 8.800000e-05      2.500525e+00      2.550324e+00     -3.319513e-05     
 9.000000e-05      2.500535e+00      2.551420e+00     -3.318550e-05     
 9.200000e-05      2.500546e+00      2.552509e+00     -3.317595e-05     
 9.400000e-05      2.500556e+00      2.553590e+00     -3.316646e-05     
 9.600000e-05      2.500567e+00      2.554663e+00     -3.315706e-05     
 9.800000e-05      2.500577e+00      2.555728e+00     -3.314773e-05     
 1.000000e-04      2.500587e+00      2.556784e+00     -3.313847e-05     
 1.020000e-04      2.500597e+00      2.557832e+00     -3.312930e-05     
 1.040000e-04      2.500607e+00      2.558871e+00     -3.312021e-05     
 1.060000e-04      2.500617e+00      2.559901e+00     -3.311120e-05     
 1.080000e-04      2.500627e+00      2.560922e+00     -3.310227e-05     
 1.100000e-04      2.500637e+00      2.561933e+00     -3.309343e-05     
 1.120000e-04      2.500647e+00      2.562936e+00     -3.308468e-05     
 1.140000e-04      2.500656e+00      2.563928e+00     -3.307601e-05     
 1.160000e-04      2.500666e+00      2.564911e+00     -3.306743e-05     
 1.180000e-04      2.500675e+00      2.565885e+00     -3.305894e-05     
 1.200000e-04      2.500684e+00      2.566848e+00     -3.305055e-05     
 1.220000e-04      2.500693e+00      2.567801e+00     -3.304225e-05     
 1.240000e-04      2.500702e+00      2.568743e+00     -3.303404e-05     
 1.260000e-04      2.500711e+00      2.569676e+00     -3.302593e-05     
 1.280000e-04      2.500720e+00      2.570597e+00     -3.301791e-05     
 1.300000e-04      2.500728e+00      2.571508e+00     -3.300999e-05     
 1.320000e-04      2.500737e+00      2.572408e+00     -3.300217e-05     
 1.340000e-04      2.500745e+00      2.573297e+00     -3.299446e-05     
 1.360000e-04      2.500754e+00      2.574175e+00     -3.298684e-05     
 1.380000e-04      2.500762e+00      2.575042e+00     -3.297933e-05     
 1.400000e-04      2.500770e+00      2.575897e+00     -3.297192e-05     
 1.420000e-04      2.500778e+00      2.576740e+00     -3.296461e-05     
 1.440000e-04      2.500786e+00      2.577572e+00     -3.295742e-05     
 1.460000e-04      2.500793e+00      2.578392e+00     -3.295033e-05     
 1.480000e-04      2.500801e+00      2.579200e+00     -3.294335e-05     
 1.500000e-04      2.500809e+00      2.579996e+00     -3.293647e-05     
 1.520000e-04      2.500816e+00      2.580780e+00     -3.292971e-05     
 1.540000e-04      2.500823e+00      2.581552e+00     -3.292306e-05     
 1.560000e-04      2.500830e+00      2.582311e+00     -3.291652e-05     
 1.580000e-04      2.500837e+00      2.583057e+00     -3.291010e-05     
 1.600000e-04      2.500844e+00      2.583791e+00     -3.290379e-05     
 1.620000e-04      2.500850e+00      2.584512e+00     -3.289760e-05     
 1.640000e-04      2.500857e+00      2.585220e+00     -3.289152e-05     
 1.660000e-04      2.500863e+00      2.585915e+00     -3.288556e-05     
 1.680000e-04      2.500870e+00      2.586598e+00     -3.287972e-05     
 1.700000e-04      2.500876e+00      2.587266e+00     -3.287400e-05     
 1.720000e-04      2.500882e+00      2.587922e+00     -3.286840e-05     
 1.740000e-04      2.500888e+00      2.588564e+00     -3.286292e-05     
 1.760000e-04      2.500893e+00      2.589193e+00     -3.285756e-05     
 1.780000e-04      2.500899e+00      2.589808e+00     -3.285233e-05     
 1.800000e-04      2.500904e+00      2.590409e+00     -3.284722e-05     
 1.820000e-04      2.500910e+00      2.590997e+00     -3.284223e-05     
 1.840000e-04      2.500915e+00      2.591570e+00     -3.283737e-05     
 1.860000e-04      2.500920e+00      2.592130e+00     -3.283263e-05     
 1.880000e-04      2.500925e+00      2.592675e+00     -3.282802e-05     
 1.900000e-04      2.500929e+00      2.593207e+00     -3.282354e-05     
 1.920000e-04      2.500934e+00      2.593724e+00     -3.281918e-05     
 1.940000e-04      2.500938e+00      2.594227e+00     -3.281496e-05     
 1.960000e-04      2.500942e+00      2.594716e+00     -3.281086e-05     
 1.980000e-04      2.500947e+00      2.595190e+00     -3.280689e-05     
 2.000000e-04      2.500951e+00      2.595649e+00     -3.280306e-05     
 2.020000e-04      2.500954e+00      2.596094e+00     -3.279935e-05     
 2.040000e-04      2.500958e+00      2.596524e+00     -3.279578e-05     
 2.060000e-04      2.500962e+00      2.596940e+00     -3.279234e-05     
 2.080000e-04      2.500965e+00      2.597341e+00     -3.278903e-05     
 2.100000e-04      2.500968e+00      2.597727e+00     -3.278585e-05     
 2.120000e-04      2.500971e+00      2.598097e+00     -3.278281e-05     
 2.140000e-04      2.500974e+00      2.598453e+00     -3.277990e-05     
 2.160000e-04      2.500977e+00      2.598794e+00     -3.277713e-05     
 2.180000e-04      2.500979e+00      2.599120e+00     -3.277449e-05     
 2.200000e-04      2.500982e+00      2.599431e+00     -3.277199e-05     
 2.220000e-04      2.500984e+00      2.599726e+00     -3.276962e-05     
 2.240000e-04      2.500986e+00      2.600007e+00     -3.276739e-05     
 2.260000e-04      2.500988e+00      2.600272e+00     -3.276529e-05     
 2.280000e-04      2.500990e+00      2.600522e+00     -3.276333e-05     
 2.300000e-04      2.500992e+00      2.600756e+00     -3.276151e-05     
 2.320000e-04      2.500993e+00      2.600975e+00     -3.275983e-05     
 2.340000e-04      2.500994e+00      2.601178e+00     -3.275828e-05     
 2.360000e-04      2.500996e+00      2.601367e+00     -3.275688e-05     
 2.380000e-04      2.500997e+00      2.601539e+00     -3.275561e-05     
 2.400000e-04      2.500998e+00      2.601696e+00     -3.275448e-05     
 2.420000e-04      2.500998e+00      2.601838e+00     -3.275348e-05     
 2.440000e-04      2.500999e+00      2.601964e+00     -3.275263e-05     
 2.460000e-04      2.500999e+00      2.602075e+00     -3.275191e-05     
 2.480000e-04      2.500999e+00      2.602169e+00     -3.275134e-05     
 2.500000e-04      2.501000e+00      2.602249e+00     -3.275090e-05     
 2.520000e-04      2.500999e+00      2.602312e+00     -3.275060e-05     
 2.540000e-04      2.500999e+00      2.602360e+00     -3.275044e-05     
 2.560000e-04      2.500999e+00      2.602393e+00     -3.275042e-05     
 2.580000e-04      2.500998e+00      2.602410e+00     -3.275054e-05     
 2.600000e-04      2.500998e+00      2.602411e+00     -3.275080e-05     
 2.620000e-04      2.500997e+00      2.602396e+00     -3.275119e-05     
 2.640000e-04      2.500996e+00      2.602366e+00     -3.275173e-05     
 2.660000e-04      2.500994e+00      2.602320e+00     -3.275240e-05     
 2.680000e-04      2.500993e+00      2.602259e+00     -3.275322e-05     
 2.700000e-04      2.500992e+00      2.602182e+00     -3.275417e-05     
 2.720000e-04      2.500990e+00      2.602090e+00     -3.275526e-05     
 2.740000e-04      2.500988e+00      2.601981e+00     -3.275649e-05     
 2.760000e-04      2.500986e+00      2.601858e+00     -3.275786e-05     
 2.780000e-04      2.500984e+00      2.601718e+00     -3.275936e-05     
 2.800000e-04      2.500982e+00      2.601563e+00     -3.276100e-05     
 2.820000e-04      2.500979e+00      2.601393e+00     -3.276278e-05     
 2.840000e-04      2.500977e+00      2.601207e+00     -3.276470e-05     
 2.860000e-04      2.500974e+00      2.601006e+00     -3.276676e-05     
 2.880000e-04      2.500971e+00      2.600789e+00     -3.276895e-05     
 2.900000e-04      2.500968e+00      2.600557e+00     -3.277128e-05     
 2.920000e-04      2.500965e+00      2.600309e+00     -3.277374e-05     
 2.940000e-04      2.500962e+00      2.600047e+00     -3.277634e-05     
 2.960000e-04      2.500958e+00      2.599769e+00     -3.277907e-05     
 2.980000e-04      2.500954e+00      2.599475e+00     -3.278194e-05     
 3.000000e-04      2.500951e+00      2.599167e+00     -3.278494e-05     
 3.020000e-04      2.500947e+00      2.598843e+00     -3.278808e-05     
 3.040000e-04      2.500942e+00      2.598504e+00     -3.279135e-05     
 3.060000e-04      2.500938e+00      2.598150e+00     -3.279476e-05     
 3.080000e-04      2.500934e+00      2.597782e+00     -3.279829e-05     
 3.100000e-04      2.500929e+00      2.597398e+00     -3.280196e-05     
 3.120000e-04      2.500925e+00      2.596999e+00     -3.280576e-05     
 3.140000e-04      2.500920e+00      2.596586e+00     -3.280969e-05     
 3.160000e-04      2.500915e+00      2.596158e+00     -3.281375e-05     
 3.180000e-04      2.500910e+00      2.595715e+00     -3.281794e-05     
 3.200000e-04      2.500904e+00      2.595257e+00     -3.282226e-05     
 3.220000e-04      2.500899e+00      2.594785e+00     -3.282670e-05     
 3.240000e-04      2.500893e+00      2.594299e+00     -3.283128e-05     
 3.260000e-04      2.500888e+00      2.593798e+00     -3.283598e-05     
 3.280000e-04      2.500882e+00      2.593283e+00     -3.284080e-05     
 3.300000e-04      2.500876e+00      2.592753e+00     -3.284576e-05     
 3.320000e-04      2.500870e+00      2.592210e+00     -3.285083e-05     
 3.340000e-04      2.500863e+00      2.591652e+00     -3.285603e-05     
 3.360000e-04      2.500857e+00      2.591080e+00     -3.286136e-05     
 3.380000e-04      2.500850e+00      2.590494e+00     -3.286680e-05     
 3.400000e-04      2.500844e+00      2.589895e+00     -3.287237e-05     
 3.420000e-04      2.500837e+00      2.589282e+00     -3.287806e-05     
 3.440000e-04      2.500830e+00      2.588655e+00     -3.288387e-05     
 3.460000e-04      2.500823e+00      2.588015e+00     -3.288979e-05     
 3.480000e-04      2.500816e+00      2.587361e+00     -3.289584e-05     
 3.500000e-04      2.500809e+00      2.586694e+00     -3.290200e-05     
 3.520000e-04      2.500801e+00      2.586013e+00     -3.290827e-05     
 3.540000e-04      2.500793e+00      2.585320e+00     -3.291467e-05     
 3.560000e-04      2.500786e+00      2.584613e+00     -3.292117e-05     
 3.580000e-04      2.500778e+00      2.583894e+00     -3.292779e-05     
 3.600000e-04      2.500770e+00      2.583162e+00     -3.293452e-05     
 3.620000e-04      2.500762e+00      2.582417e+00     -3.294137e-05     
 3.640000e-04      2.500754e+00      2.581659e+00     -3.294832e-05     
 3.660000e-04      2.500745e+00      2.580889e+00     -3.295538e-05     
 3.680000e-04      2.500737e+00      2.580107e+00     -3.296255e-05     
 3.700000e-04      2.500728e+00      2.579312e+00     -3.296983e-05     
 3.720000e-04      2.500720e+00      2.578505e+00     -3.297721e-05     
 3.740000e-04      2.500711e+00      2.577687e+00     -3.298469e-05     
 3.760000e-04      2.500702e+00      2.576856e+00     -3.299228e-05     
 3.780000e-04      2.500693e+00      2.576014e+00     -3.299998e-05     
 3.800000e-04      2.500684e+00      2.575160e+00     -3.300777e-05     
 3.820000e-04      2.500675e+00      2.574295e+00     -3.301566e-05     
 3.840000e-04      2.500666e+00      2.573418e+00     -3.302365e-05     
 3.860000e-04      2.500656e+00      2.572531e+00     -3.303174e-05     
 3.880000e-04      2.500647e+00      2.571632e+00     -3.303992e-05     
 3.900000e-04      2.500637e+00      2.570722e+00     -3.304820e-05     
 3.920000e-04      2.500627e+00      2.569802e+00     -3.305658e-05     
 3.940000e-04      2.500617e+00      2.568870e+00     -3.306504e-05     
 3.960000e-04      2.500607e+00      2.567929e+00     -3.307360e-05     
 3.980000e-04      2.500597e+00      2.566977e+00     -3.308224e-05     
 4.000000e-04      2.500587e+00      2.566015e+00     -3.309098e-05     
 4.020000e-04      2.500577e+00      2.565042e+00     -3.309980e-05     
 4.040000e-04      2.500567e+00      2.564060e+00     -3.310870e-05     
 4.060000e-04      2.500556e+00      2.563068e+00     -3.311769e-05     
 4.080000e-04      2.500546e+00      2.562067e+00     -3.312677e-05     
 4.100000e-04      2.500535e+00      2.561056e+00     -3.313592e-05     
 4.120000e-04      2.500525e+00      2.560036e+00     -3.314516e-05     
 4.140000e-04      2.500514e+00      2.559006e+00     -3.315447e-05     
 4.160000e-04      2.500503e+00      2.557968e+00     -3.316386e-05     
 4.180000e-04      2.500492e+00      2.556921e+00     -3.317333e-05     
 4.200000e-04      2.500481e+00      2.555865e+00     -3.318287e-05     
 4.220000e-04      2.500470e+00      2.554801e+00     -3.319248e-05     
 4.240000e-04      2.500459e+00      2.553729e+00     -3.320216e-05     
 4.260000e-04      2.500448e+00      2.552648e+00     -3.321192e-05     
 4.280000e-04      2.500437e+00      2.551560e+00     -3.322174e-05     
 4.300000e-04      2.500425e+00      2.550463e+00     -3.323163e-05     
 4.320000e-04      2.500414e+00      2.549359e+00     -3.324158e-05     
 4.340000e-04      2.500402e+00      2.548248e+00     -3.325160e-05     
 4.360000e-04      2.500391e+00      2.547129e+00     -3.326167e-05     
 4.380000e-04      2.500379e+00      2.546003e+00     -3.327181e-05     
 4.400000e-04      2.500368e+00      2.544870e+00     -3.328201e-05     
 4.420000e-04      2.500356e+00      2.543731e+00     -3.329227e-05     
 4.440000e-04      2.500344e+00      2.542585e+00     -3.330258e-05     
 4.460000e-04      2.500332e+00      2.541432e+00     -3.331294e-05     
 4.480000e-04      2.500320e+00      2.540273e+00     -3.332336e-05     
 4.500000e-04      2.500309e+00      2.539108e+00     -3.333383e-05     
 4.520000e-04      2.500297e+00      2.537938e+00     -3.334435e-05     
 4.540000e-04      2.500285e+00      2.536761e+00     -3.335491e-05     
 4.560000e-04      2.500272e+00      2.535580e+00     -3.336552e-05     
 4.580000e-04      2.500260e+00      2.534393e+00     -3.337618e-05     
 4.600000e-04      2.500248e+00      2.533200e+00     -3.338687e-05     
 4.620000e-04      2.500236e+00      2.532003e+00     -3.339761e-05     
 4.640000e-04      2.500224e+00      2.530801e+00     -3.340839e-05     
 4.660000e-04      2.500212e+00      2.529595e+00     -3.341920e-05     
 4.680000e-04      2.500199e+00      2.528384e+00     -3.343005e-05     
 4.700000e-04      2.500187e+00      2.527169e+00     -3.344094e-05     
 4.720000e-04      2.500175e+00      2.525950e+00     -3.345185e-05     
 4.740000e-04      2.500162e+00      2.524727e+00     -3.346280e-05     
 4.760000e-04      2.500150e+00      2.523501e+00     -3.347378e-05     
 4.780000e-04      2.500137e+00      2.522271e+00     -3.348478e-05     
 4.800000e-04      2.500125e+00      2.521038e+00     -3.349581e-05     
 4.820000e-04      2.500112e+00      2.519802e+00     -3.350686e-05     
 4.840000e-04      2.500100e+00      2.518563e+00     -3.351794e-05     
 4.860000e-04      2.500087e+00      2.517322e+00     -3.352903e-05     
 4.880000e-04      2.500075e+00      2.516078e+00     -3.354015e-05     
 4.900000e-04      2.500062e+00      2.514831e+00     -3.355127e-05     
 4.920000e-04      2.500050e+00      2.513583e+00     -3.356242e-05     
 4.940000e-04      2.500037e+00      2.512333e+00     -3.357358e-05     
 4.960000e-04      2.500025e+00      2.511081e+00     -3.358475e-05     
 4.980000e-04      2.500012e+00      2.509828e+00     -3.359593e-05     
 5.000000e-04      2.500000e+00      2.508574e+00     -3.360711e-05     
 5.020000e-04      2.499987e+00      2.507318e+00     -3.361831e-05     
 5.040000e-04      2.499974e+00      2.506062e+00     -3.362950e-05     
 5.060000e-04      2.499962e+00      2.504805e+00     -3.364070e-05     
 5.080000e-04      2.499949e+00      2.503548e+00     -3.365190e-05     
 5.100000e-04      2.499937e+00      2.502290e+00     -3.366310e-05     
 5.120000e-04      2.499924e+00      2.501032e+00     -3.367430e-05     
 5.140000e-04      2.499912e+00      2.499774e+00     -3.368549e-05     
 5.160000e-04      2.499899e+00      2.498517e+00     -3.369668e-05     
 5.180000e-04      2.499887e+00      2.497260e+00     -3.370786e-05     
 5.200000e-04      2.499874e+00      2.496004e+00     -3.371903e-05     
 5.220000e-04      2.499862e+00      2.494749e+00     -3.373018e-05     
 5.240000e-04      2.499849e+00      2.493495e+00     -3.374133e-05     
 5.260000e-04      2.499837e+00      2.492243e+00     -3.375246e-05     
 5.280000e-04      2.499824e+00      2.490991e+00     -3.376357e-05     
 5.300000e-04      2.499812e+00      2.489742e+00     -3.377466e-05     
 5.320000e-04      2.499800e+00      2.488495e+00     -3.378573e-05     
 5.340000e-04      2.499787e+00      2.487249e+00     -3.379678e-05     
 5.360000e-04      2.499775e+00      2.486006e+00     -3.380781e-05     
 5.380000e-04      2.499763e+00      2.484766e+00     -3.381881e-05     
 5.400000e-04      2.499751e+00      2.483528e+00     -3.382978e-05     
 5.420000e-04      2.499739e+00      2.482293e+00     -3.384072e-05     
 5.440000e-04      2.499727e+00      2.481061e+00     -3.385164e-05     
