
time (s)          v("VIN" ?resul    v("VOUT" ?resu    getData("VDD:p

 0.000000e+00      2.500000e+00      2.918896e-01     -2.637893e-04     
 2.000000e-06      2.500012e+00      2.926597e-01     -2.640148e-04     
 4.000000e-06      2.500025e+00      2.936668e-01     -2.642308e-04     
 6.000000e-06      2.500037e+00      2.946976e-01     -2.644418e-04     
 8.000000e-06      2.500050e+00      2.957214e-01     -2.646514e-04     
 1.000000e-05      2.500062e+00      2.967380e-01     -2.648596e-04     
 1.200000e-05      2.500075e+00      2.977473e-01     -2.650663e-04     
 1.400000e-05      2.500087e+00      2.987491e-01     -2.652715e-04     
 1.600000e-05      2.500100e+00      2.997434e-01     -2.654751e-04     
 1.800000e-05      2.500112e+00      3.007300e-01     -2.656772e-04     
 2.000000e-05      2.500125e+00      3.017088e-01     -2.658778e-04     
 2.200000e-05      2.500137e+00      3.026796e-01     -2.660767e-04     
 2.400000e-05      2.500150e+00      3.036424e-01     -2.662740e-04     
 2.600000e-05      2.500162e+00      3.045970e-01     -2.664697e-04     
 2.800000e-05      2.500175e+00      3.055433e-01     -2.666636e-04     
 3.000000e-05      2.500187e+00      3.064811e-01     -2.668559e-04     
 3.200000e-05      2.500199e+00      3.074105e-01     -2.670464e-04     
 3.400000e-05      2.500212e+00      3.083311e-01     -2.672352e-04     
 3.600000e-05      2.500224e+00      3.092430e-01     -2.674223e-04     
 3.800000e-05      2.500236e+00      3.101460e-01     -2.676075e-04     
 4.000000e-05      2.500248e+00      3.110400e-01     -2.677909e-04     
 4.200000e-05      2.500260e+00      3.119250e-01     -2.679725e-04     
 4.400000e-05      2.500272e+00      3.128006e-01     -2.681522e-04     
 4.600000e-05      2.500285e+00      3.136670e-01     -2.683300e-04     
 4.800000e-05      2.500297e+00      3.145239e-01     -2.685060e-04     
 5.000000e-05      2.500309e+00      3.153713e-01     -2.686800e-04     
 5.200000e-05      2.500320e+00      3.162091e-01     -2.688520e-04     
 5.400000e-05      2.500332e+00      3.170371e-01     -2.690221e-04     
 5.600000e-05      2.500344e+00      3.178552e-01     -2.691902e-04     
 5.800000e-05      2.500356e+00      3.186634e-01     -2.693563e-04     
 6.000000e-05      2.500368e+00      3.194616e-01     -2.695204e-04     
 6.200000e-05      2.500379e+00      3.202497e-01     -2.696825e-04     
 6.400000e-05      2.500391e+00      3.210275e-01     -2.698424e-04     
 6.600000e-05      2.500402e+00      3.217950e-01     -2.700003e-04     
 6.800000e-05      2.500414e+00      3.225520e-01     -2.701561e-04     
 7.000000e-05      2.500425e+00      3.232986e-01     -2.703098e-04     
 7.200000e-05      2.500437e+00      3.240346e-01     -2.704613e-04     
 7.400000e-05      2.500448e+00      3.247599e-01     -2.706107e-04     
 7.600000e-05      2.500459e+00      3.254744e-01     -2.707579e-04     
 7.800000e-05      2.500470e+00      3.261782e-01     -2.709029e-04     
 8.000000e-05      2.500481e+00      3.268709e-01     -2.710457e-04     
 8.200000e-05      2.500492e+00      3.275527e-01     -2.711863e-04     
 8.400000e-05      2.500503e+00      3.282234e-01     -2.713246e-04     
 8.600000e-05      2.500514e+00      3.288829e-01     -2.714607e-04     
 8.800000e-05      2.500525e+00      3.295312e-01     -2.715946e-04     
 9.000000e-05      2.500535e+00      3.301682e-01     -2.717261e-04     
 9.200000e-05      2.500546e+00      3.307938e-01     -2.718553e-04     
 9.400000e-05      2.500556e+00      3.314080e-01     -2.719823e-04     
 9.600000e-05      2.500567e+00      3.320107e-01     -2.721069e-04     
 9.800000e-05      2.500577e+00      3.326017e-01     -2.722292e-04     
 1.000000e-04      2.500587e+00      3.331812e-01     -2.723491e-04     
 1.020000e-04      2.500597e+00      3.337489e-01     -2.724666e-04     
 1.040000e-04      2.500607e+00      3.343049e-01     -2.725818e-04     
 1.060000e-04      2.500617e+00      3.348490e-01     -2.726945e-04     
 1.080000e-04      2.500627e+00      3.353812e-01     -2.728049e-04     
 1.100000e-04      2.500637e+00      3.359015e-01     -2.729129e-04     
 1.120000e-04      2.500647e+00      3.364099e-01     -2.730184e-04     
 1.140000e-04      2.500656e+00      3.369061e-01     -2.731215e-04     
 1.160000e-04      2.500666e+00      3.373903e-01     -2.732222e-04     
 1.180000e-04      2.500675e+00      3.378624e-01     -2.733203e-04     
 1.200000e-04      2.500684e+00      3.383222e-01     -2.734161e-04     
 1.220000e-04      2.500693e+00      3.387698e-01     -2.735093e-04     
 1.240000e-04      2.500702e+00      3.392051e-01     -2.736001e-04     
 1.260000e-04      2.500711e+00      3.396282e-01     -2.736883e-04     
 1.280000e-04      2.500720e+00      3.400388e-01     -2.737741e-04     
 1.300000e-04      2.500728e+00      3.404371e-01     -2.738573e-04     
 1.320000e-04      2.500737e+00      3.408229e-01     -2.739381e-04     
 1.340000e-04      2.500745e+00      3.411963e-01     -2.740163e-04     
 1.360000e-04      2.500754e+00      3.415572e-01     -2.740919e-04     
 1.380000e-04      2.500762e+00      3.419055e-01     -2.741651e-04     
 1.400000e-04      2.500770e+00      3.422413e-01     -2.742357e-04     
 1.420000e-04      2.500778e+00      3.425645e-01     -2.743037e-04     
 1.440000e-04      2.500786e+00      3.428751e-01     -2.743692e-04     
 1.460000e-04      2.500793e+00      3.431731e-01     -2.744321e-04     
 1.480000e-04      2.500801e+00      3.434585e-01     -2.744924e-04     
 1.500000e-04      2.500809e+00      3.437311e-01     -2.745502e-04     
 1.520000e-04      2.500816e+00      3.439911e-01     -2.746054e-04     
 1.540000e-04      2.500823e+00      3.442384e-01     -2.746580e-04     
 1.560000e-04      2.500830e+00      3.444729e-01     -2.747081e-04     
 1.580000e-04      2.500837e+00      3.446948e-01     -2.747555e-04     
 1.600000e-04      2.500844e+00      3.449039e-01     -2.748004e-04     
 1.620000e-04      2.500850e+00      3.451002e-01     -2.748427e-04     
 1.640000e-04      2.500857e+00      3.452839e-01     -2.748823e-04     
 1.660000e-04      2.500863e+00      3.454547e-01     -2.749194e-04     
 1.680000e-04      2.500870e+00      3.456128e-01     -2.749539e-04     
 1.700000e-04      2.500876e+00      3.457581e-01     -2.749858e-04     
 1.720000e-04      2.500882e+00      3.458907e-01     -2.750151e-04     
 1.740000e-04      2.500888e+00      3.460106e-01     -2.750418e-04     
 1.760000e-04      2.500893e+00      3.461176e-01     -2.750659e-04     
 1.780000e-04      2.500899e+00      3.462120e-01     -2.750875e-04     
 1.800000e-04      2.500904e+00      3.462936e-01     -2.751064e-04     
 1.820000e-04      2.500910e+00      3.463625e-01     -2.751227e-04     
 1.840000e-04      2.500915e+00      3.464187e-01     -2.751365e-04     
 1.860000e-04      2.500920e+00      3.464622e-01     -2.751476e-04     
 1.880000e-04      2.500925e+00      3.464930e-01     -2.751562e-04     
 1.900000e-04      2.500929e+00      3.465111e-01     -2.751622e-04     
 1.920000e-04      2.500934e+00      3.465166e-01     -2.751656e-04     
 1.940000e-04      2.500938e+00      3.465095e-01     -2.751665e-04     
 1.960000e-04      2.500942e+00      3.464898e-01     -2.751647e-04     
 1.980000e-04      2.500947e+00      3.464575e-01     -2.751604e-04     
 2.000000e-04      2.500951e+00      3.464127e-01     -2.751536e-04     
 2.020000e-04      2.500954e+00      3.463553e-01     -2.751442e-04     
 2.040000e-04      2.500958e+00      3.462855e-01     -2.751322e-04     
 2.060000e-04      2.500962e+00      3.462032e-01     -2.751177e-04     
 2.080000e-04      2.500965e+00      3.461085e-01     -2.751006e-04     
 2.100000e-04      2.500968e+00      3.460014e-01     -2.750811e-04     
 2.120000e-04      2.500971e+00      3.458820e-01     -2.750590e-04     
 2.140000e-04      2.500974e+00      3.457503e-01     -2.750344e-04     
 2.160000e-04      2.500977e+00      3.456063e-01     -2.750072e-04     
 2.180000e-04      2.500979e+00      3.454501e-01     -2.749776e-04     
 2.200000e-04      2.500982e+00      3.452817e-01     -2.749455e-04     
 2.220000e-04      2.500984e+00      3.451012e-01     -2.749109e-04     
 2.240000e-04      2.500986e+00      3.449086e-01     -2.748738e-04     
 2.260000e-04      2.500988e+00      3.447040e-01     -2.748343e-04     
 2.280000e-04      2.500990e+00      3.444874e-01     -2.747923e-04     
 2.300000e-04      2.500992e+00      3.442589e-01     -2.747479e-04     
 2.320000e-04      2.500993e+00      3.440185e-01     -2.747010e-04     
 2.340000e-04      2.500994e+00      3.437663e-01     -2.746517e-04     
 2.360000e-04      2.500996e+00      3.435024e-01     -2.746000e-04     
 2.380000e-04      2.500997e+00      3.432267e-01     -2.745459e-04     
 2.400000e-04      2.500998e+00      3.429395e-01     -2.744895e-04     
 2.420000e-04      2.500998e+00      3.426407e-01     -2.744306e-04     
 2.440000e-04      2.500999e+00      3.423304e-01     -2.743694e-04     
 2.460000e-04      2.500999e+00      3.420086e-01     -2.743058e-04     
 2.480000e-04      2.500999e+00      3.416755e-01     -2.742399e-04     
 2.500000e-04      2.501000e+00      3.413311e-01     -2.741717e-04     
 2.520000e-04      2.500999e+00      3.409755e-01     -2.741012e-04     
 2.540000e-04      2.500999e+00      3.406088e-01     -2.740283e-04     
 2.560000e-04      2.500999e+00      3.402310e-01     -2.739532e-04     
 2.580000e-04      2.500998e+00      3.398422e-01     -2.738759e-04     
 2.600000e-04      2.500998e+00      3.394425e-01     -2.737963e-04     
 2.620000e-04      2.500997e+00      3.390320e-01     -2.737144e-04     
 2.640000e-04      2.500996e+00      3.386107e-01     -2.736304e-04     
 2.660000e-04      2.500994e+00      3.381788e-01     -2.735441e-04     
 2.680000e-04      2.500993e+00      3.377362e-01     -2.734557e-04     
 2.700000e-04      2.500992e+00      3.372833e-01     -2.733651e-04     
 2.720000e-04      2.500990e+00      3.368199e-01     -2.732723e-04     
 2.740000e-04      2.500988e+00      3.363462e-01     -2.731774e-04     
 2.760000e-04      2.500986e+00      3.358622e-01     -2.730804e-04     
 2.780000e-04      2.500984e+00      3.353682e-01     -2.729814e-04     
 2.800000e-04      2.500982e+00      3.348641e-01     -2.728802e-04     
 2.820000e-04      2.500979e+00      3.343502e-01     -2.727770e-04     
 2.840000e-04      2.500977e+00      3.338263e-01     -2.726717e-04     
 2.860000e-04      2.500974e+00      3.332928e-01     -2.725645e-04     
 2.880000e-04      2.500971e+00      3.327496e-01     -2.724552e-04     
 2.900000e-04      2.500968e+00      3.321968e-01     -2.723440e-04     
 2.920000e-04      2.500965e+00      3.316347e-01     -2.722308e-04     
 2.940000e-04      2.500962e+00      3.310632e-01     -2.721156e-04     
 2.960000e-04      2.500958e+00      3.304825e-01     -2.719986e-04     
 2.980000e-04      2.500954e+00      3.298928e-01     -2.718797e-04     
 3.000000e-04      2.500951e+00      3.292940e-01     -2.717588e-04     
 3.020000e-04      2.500947e+00      3.286863e-01     -2.716362e-04     
 3.040000e-04      2.500942e+00      3.280699e-01     -2.715117e-04     
 3.060000e-04      2.500938e+00      3.274448e-01     -2.713854e-04     
 3.080000e-04      2.500934e+00      3.268111e-01     -2.712573e-04     
 3.100000e-04      2.500929e+00      3.261690e-01     -2.711275e-04     
 3.120000e-04      2.500925e+00      3.255187e-01     -2.709959e-04     
 3.140000e-04      2.500920e+00      3.248601e-01     -2.708626e-04     
 3.160000e-04      2.500915e+00      3.241934e-01     -2.707277e-04     
 3.180000e-04      2.500910e+00      3.235188e-01     -2.705910e-04     
 3.200000e-04      2.500904e+00      3.228364e-01     -2.704528e-04     
 3.220000e-04      2.500899e+00      3.221463e-01     -2.703129e-04     
 3.240000e-04      2.500893e+00      3.214486e-01     -2.701714e-04     
 3.260000e-04      2.500888e+00      3.207434e-01     -2.700283e-04     
 3.280000e-04      2.500882e+00      3.200309e-01     -2.698837e-04     
 3.300000e-04      2.500876e+00      3.193113e-01     -2.697376e-04     
 3.320000e-04      2.500870e+00      3.185845e-01     -2.695900e-04     
 3.340000e-04      2.500863e+00      3.178508e-01     -2.694410e-04     
 3.360000e-04      2.500857e+00      3.171103e-01     -2.692905e-04     
 3.380000e-04      2.500850e+00      3.163632e-01     -2.691386e-04     
 3.400000e-04      2.500844e+00      3.156095e-01     -2.689853e-04     
 3.420000e-04      2.500837e+00      3.148494e-01     -2.688306e-04     
 3.440000e-04      2.500830e+00      3.140830e-01     -2.686747e-04     
 3.460000e-04      2.500823e+00      3.133105e-01     -2.685174e-04     
 3.480000e-04      2.500816e+00      3.125320e-01     -2.683588e-04     
 3.500000e-04      2.500809e+00      3.117476e-01     -2.681990e-04     
 3.520000e-04      2.500801e+00      3.109576e-01     -2.680380e-04     
 3.540000e-04      2.500793e+00      3.101620e-01     -2.678758e-04     
 3.560000e-04      2.500786e+00      3.093609e-01     -2.677124e-04     
 3.580000e-04      2.500778e+00      3.085545e-01     -2.675479e-04     
 3.600000e-04      2.500770e+00      3.077430e-01     -2.673822e-04     
 3.620000e-04      2.500762e+00      3.069265e-01     -2.672155e-04     
 3.640000e-04      2.500754e+00      3.061052e-01     -2.670478e-04     
 3.660000e-04      2.500745e+00      3.052791e-01     -2.668790e-04     
 3.680000e-04      2.500737e+00      3.044484e-01     -2.667092e-04     
 3.700000e-04      2.500728e+00      3.036134e-01     -2.665385e-04     
 3.720000e-04      2.500720e+00      3.027741e-01     -2.663668e-04     
 3.740000e-04      2.500711e+00      3.019306e-01     -2.661942e-04     
 3.760000e-04      2.500702e+00      3.010832e-01     -2.660208e-04     
 3.780000e-04      2.500693e+00      3.002319e-01     -2.658465e-04     
 3.800000e-04      2.500684e+00      2.993770e-01     -2.656714e-04     
 3.820000e-04      2.500675e+00      2.985186e-01     -2.654955e-04     
 3.840000e-04      2.500666e+00      2.976568e-01     -2.653189e-04     
 3.860000e-04      2.500656e+00      2.967917e-01     -2.651415e-04     
 3.880000e-04      2.500647e+00      2.959236e-01     -2.649635e-04     
 3.900000e-04      2.500637e+00      2.950526e-01     -2.647848e-04     
 3.920000e-04      2.500627e+00      2.941788e-01     -2.646054e-04     
 3.940000e-04      2.500617e+00      2.933025e-01     -2.644255e-04     
 3.960000e-04      2.500607e+00      2.924236e-01     -2.642450e-04     
 3.980000e-04      2.500597e+00      2.915425e-01     -2.640639e-04     
 4.000000e-04      2.500587e+00      2.906592e-01     -2.638824e-04     
 4.020000e-04      2.500577e+00      2.897740e-01     -2.637003e-04     
 4.040000e-04      2.500567e+00      2.888869e-01     -2.635179e-04     
 4.060000e-04      2.500556e+00      2.879981e-01     -2.633350e-04     
 4.080000e-04      2.500546e+00      2.871078e-01     -2.631517e-04     
 4.100000e-04      2.500535e+00      2.862162e-01     -2.629681e-04     
 4.120000e-04      2.500525e+00      2.853233e-01     -2.627841e-04     
 4.140000e-04      2.500514e+00      2.844294e-01     -2.625999e-04     
 4.160000e-04      2.500503e+00      2.835346e-01     -2.624154e-04     
 4.180000e-04      2.500492e+00      2.826391e-01     -2.622307e-04     
 4.200000e-04      2.500481e+00      2.817429e-01     -2.620458e-04     
 4.220000e-04      2.500470e+00      2.808464e-01     -2.618608e-04     
 4.240000e-04      2.500459e+00      2.799496e-01     -2.616756e-04     
 4.260000e-04      2.500448e+00      2.790527e-01     -2.614903e-04     
 4.280000e-04      2.500437e+00      2.781558e-01     -2.613050e-04     
 4.300000e-04      2.500425e+00      2.772591e-01     -2.611196e-04     
 4.320000e-04      2.500414e+00      2.763628e-01     -2.609342e-04     
 4.340000e-04      2.500402e+00      2.754670e-01     -2.607489e-04     
 4.360000e-04      2.500391e+00      2.745719e-01     -2.605636e-04     
 4.380000e-04      2.500379e+00      2.736776e-01     -2.603784e-04     
 4.400000e-04      2.500368e+00      2.727843e-01     -2.601933e-04     
 4.420000e-04      2.500356e+00      2.718922e-01     -2.600084e-04     
 4.440000e-04      2.500344e+00      2.710013e-01     -2.598237e-04     
 4.460000e-04      2.500332e+00      2.701119e-01     -2.596392e-04     
 4.480000e-04      2.500320e+00      2.692241e-01     -2.594549e-04     
 4.500000e-04      2.500309e+00      2.683380e-01     -2.592709e-04     
 4.520000e-04      2.500297e+00      2.674539e-01     -2.590873e-04     
 4.540000e-04      2.500285e+00      2.665718e-01     -2.589040e-04     
 4.560000e-04      2.500272e+00      2.656920e-01     -2.587211e-04     
 4.580000e-04      2.500260e+00      2.648145e-01     -2.585385e-04     
 4.600000e-04      2.500248e+00      2.639395e-01     -2.583565e-04     
 4.620000e-04      2.500236e+00      2.630673e-01     -2.581749e-04     
 4.640000e-04      2.500224e+00      2.621978e-01     -2.579938e-04     
 4.660000e-04      2.500212e+00      2.613314e-01     -2.578132e-04     
 4.680000e-04      2.500199e+00      2.604680e-01     -2.576332e-04     
 4.700000e-04      2.500187e+00      2.596080e-01     -2.574538e-04     
 4.720000e-04      2.500175e+00      2.587513e-01     -2.572750e-04     
 4.740000e-04      2.500162e+00      2.578983e-01     -2.570969e-04     
 4.760000e-04      2.500150e+00      2.570489e-01     -2.569194e-04     
 4.780000e-04      2.500137e+00      2.562034e-01     -2.567427e-04     
 4.800000e-04      2.500125e+00      2.553620e-01     -2.565668e-04     
 4.820000e-04      2.500112e+00      2.545247e-01     -2.563916e-04     
 4.840000e-04      2.500100e+00      2.536917e-01     -2.562172e-04     
 4.860000e-04      2.500087e+00      2.528631e-01     -2.560436e-04     
 4.880000e-04      2.500075e+00      2.520391e-01     -2.558710e-04     
 4.900000e-04      2.500062e+00      2.512198e-01     -2.556992e-04     
 4.920000e-04      2.500050e+00      2.504054e-01     -2.555283e-04     
 4.940000e-04      2.500037e+00      2.495960e-01     -2.553584e-04     
 4.960000e-04      2.500025e+00      2.487918e-01     -2.551895e-04     
 4.980000e-04      2.500012e+00      2.479928e-01     -2.550216e-04     
 5.000000e-04      2.500000e+00      2.471992e-01     -2.548548e-04     
 5.020000e-04      2.499987e+00      2.464112e-01     -2.546890e-04     
 5.040000e-04      2.499974e+00      2.456289e-01     -2.545243e-04     
 5.060000e-04      2.499962e+00      2.448523e-01     -2.543607e-04     
 5.080000e-04      2.499949e+00      2.440817e-01     -2.541983e-04     
 5.100000e-04      2.499937e+00      2.433172e-01     -2.540371e-04     
 5.120000e-04      2.499924e+00      2.425589e-01     -2.538771e-04     
 5.140000e-04      2.499912e+00      2.418070e-01     -2.537183e-04     
 5.160000e-04      2.499899e+00      2.410614e-01     -2.535608e-04     
 5.180000e-04      2.499887e+00      2.403225e-01     -2.534046e-04     
 5.200000e-04      2.499874e+00      2.395903e-01     -2.532497e-04     
 5.220000e-04      2.499862e+00      2.388649e-01     -2.530962e-04     
 5.240000e-04      2.499849e+00      2.381464e-01     -2.529440e-04     
 5.260000e-04      2.499837e+00      2.374351e-01     -2.527932e-04     
 5.280000e-04      2.499824e+00      2.367309e-01     -2.526439e-04     
 5.300000e-04      2.499812e+00      2.360340e-01     -2.524960e-04     
 5.320000e-04      2.499800e+00      2.353445e-01     -2.523495e-04     
 5.340000e-04      2.499787e+00      2.346626e-01     -2.522046e-04     
 5.360000e-04      2.499775e+00      2.339883e-01     -2.520612e-04     
 5.380000e-04      2.499763e+00      2.333218e-01     -2.519193e-04     
 5.400000e-04      2.499751e+00      2.326631e-01     -2.517790e-04     
 5.420000e-04      2.499739e+00      2.320124e-01     -2.516403e-04     
 5.440000e-04      2.499727e+00      2.313698e-01     -2.515033e-04     
