
time (s)          v("VIN" ?resul    v("VOUT" ?resu    getData("VDD:p

 0.000000e+00      2.500000e+00      4.236604e+00     -4.048493e-04     
 2.000000e-06      2.500012e+00      4.236498e+00     -4.049056e-04     
 4.000000e-06      2.500025e+00      4.236357e+00     -4.049803e-04     
 6.000000e-06      2.500037e+00      4.236202e+00     -4.050626e-04     
 8.000000e-06      2.500050e+00      4.236045e+00     -4.051458e-04     
 1.000000e-05      2.500062e+00      4.235888e+00     -4.052290e-04     
 1.200000e-05      2.500075e+00      4.235732e+00     -4.053121e-04     
 1.400000e-05      2.500087e+00      4.235575e+00     -4.053951e-04     
 1.600000e-05      2.500100e+00      4.235419e+00     -4.054780e-04     
 1.800000e-05      2.500112e+00      4.235263e+00     -4.055607e-04     
 2.000000e-05      2.500125e+00      4.235107e+00     -4.056432e-04     
 2.200000e-05      2.500137e+00      4.234952e+00     -4.057256e-04     
 2.400000e-05      2.500150e+00      4.234797e+00     -4.058077e-04     
 2.600000e-05      2.500162e+00      4.234643e+00     -4.058897e-04     
 2.800000e-05      2.500175e+00      4.234488e+00     -4.059714e-04     
 3.000000e-05      2.500187e+00      4.234335e+00     -4.060529e-04     
 3.200000e-05      2.500199e+00      4.234182e+00     -4.061341e-04     
 3.400000e-05      2.500212e+00      4.234029e+00     -4.062151e-04     
 3.600000e-05      2.500224e+00      4.233877e+00     -4.062958e-04     
 3.800000e-05      2.500236e+00      4.233725e+00     -4.063762e-04     
 4.000000e-05      2.500248e+00      4.233574e+00     -4.064564e-04     
 4.200000e-05      2.500260e+00      4.233423e+00     -4.065362e-04     
 4.400000e-05      2.500272e+00      4.233274e+00     -4.066156e-04     
 4.600000e-05      2.500285e+00      4.233124e+00     -4.066948e-04     
 4.800000e-05      2.500297e+00      4.232976e+00     -4.067736e-04     
 5.000000e-05      2.500309e+00      4.232828e+00     -4.068520e-04     
 5.200000e-05      2.500320e+00      4.232681e+00     -4.069301e-04     
 5.400000e-05      2.500332e+00      4.232534e+00     -4.070077e-04     
 5.600000e-05      2.500344e+00      4.232389e+00     -4.070850e-04     
 5.800000e-05      2.500356e+00      4.232244e+00     -4.071619e-04     
 6.000000e-05      2.500368e+00      4.232099e+00     -4.072383e-04     
 6.200000e-05      2.500379e+00      4.231956e+00     -4.073143e-04     
 6.400000e-05      2.500391e+00      4.231814e+00     -4.073899e-04     
 6.600000e-05      2.500402e+00      4.231672e+00     -4.074650e-04     
 6.800000e-05      2.500414e+00      4.231531e+00     -4.075396e-04     
 7.000000e-05      2.500425e+00      4.231392e+00     -4.076137e-04     
 7.200000e-05      2.500437e+00      4.231253e+00     -4.076874e-04     
 7.400000e-05      2.500448e+00      4.231115e+00     -4.077605e-04     
 7.600000e-05      2.500459e+00      4.230978e+00     -4.078331e-04     
 7.800000e-05      2.500470e+00      4.230842e+00     -4.079052e-04     
 8.000000e-05      2.500481e+00      4.230707e+00     -4.079767e-04     
 8.200000e-05      2.500492e+00      4.230573e+00     -4.080477e-04     
 8.400000e-05      2.500503e+00      4.230440e+00     -4.081181e-04     
 8.600000e-05      2.500514e+00      4.230309e+00     -4.081880e-04     
 8.800000e-05      2.500525e+00      4.230178e+00     -4.082573e-04     
 9.000000e-05      2.500535e+00      4.230049e+00     -4.083259e-04     
 9.200000e-05      2.500546e+00      4.229920e+00     -4.083940e-04     
 9.400000e-05      2.500556e+00      4.229793e+00     -4.084614e-04     
 9.600000e-05      2.500567e+00      4.229667e+00     -4.085282e-04     
 9.800000e-05      2.500577e+00      4.229542e+00     -4.085944e-04     
 1.000000e-04      2.500587e+00      4.229419e+00     -4.086599e-04     
 1.020000e-04      2.500597e+00      4.229297e+00     -4.087248e-04     
 1.040000e-04      2.500607e+00      4.229176e+00     -4.087889e-04     
 1.060000e-04      2.500617e+00      4.229056e+00     -4.088524e-04     
 1.080000e-04      2.500627e+00      4.228937e+00     -4.089152e-04     
 1.100000e-04      2.500637e+00      4.228820e+00     -4.089774e-04     
 1.120000e-04      2.500647e+00      4.228705e+00     -4.090387e-04     
 1.140000e-04      2.500656e+00      4.228590e+00     -4.090994e-04     
 1.160000e-04      2.500666e+00      4.228477e+00     -4.091594e-04     
 1.180000e-04      2.500675e+00      4.228366e+00     -4.092186e-04     
 1.200000e-04      2.500684e+00      4.228255e+00     -4.092770e-04     
 1.220000e-04      2.500693e+00      4.228147e+00     -4.093347e-04     
 1.240000e-04      2.500702e+00      4.228039e+00     -4.093916e-04     
 1.260000e-04      2.500711e+00      4.227933e+00     -4.094477e-04     
 1.280000e-04      2.500720e+00      4.227829e+00     -4.095031e-04     
 1.300000e-04      2.500728e+00      4.227726e+00     -4.095576e-04     
 1.320000e-04      2.500737e+00      4.227625e+00     -4.096114e-04     
 1.340000e-04      2.500745e+00      4.227525e+00     -4.096643e-04     
 1.360000e-04      2.500754e+00      4.227427e+00     -4.097165e-04     
 1.380000e-04      2.500762e+00      4.227330e+00     -4.097677e-04     
 1.400000e-04      2.500770e+00      4.227235e+00     -4.098182e-04     
 1.420000e-04      2.500778e+00      4.227141e+00     -4.098678e-04     
 1.440000e-04      2.500786e+00      4.227049e+00     -4.099165e-04     
 1.460000e-04      2.500793e+00      4.226959e+00     -4.099644e-04     
 1.480000e-04      2.500801e+00      4.226870e+00     -4.100114e-04     
 1.500000e-04      2.500809e+00      4.226783e+00     -4.100576e-04     
 1.520000e-04      2.500816e+00      4.226698e+00     -4.101028e-04     
 1.540000e-04      2.500823e+00      4.226614e+00     -4.101472e-04     
 1.560000e-04      2.500830e+00      4.226532e+00     -4.101907e-04     
 1.580000e-04      2.500837e+00      4.226452e+00     -4.102332e-04     
 1.600000e-04      2.500844e+00      4.226374e+00     -4.102749e-04     
 1.620000e-04      2.500850e+00      4.226297e+00     -4.103156e-04     
 1.640000e-04      2.500857e+00      4.226222e+00     -4.103554e-04     
 1.660000e-04      2.500863e+00      4.226149e+00     -4.103943e-04     
 1.680000e-04      2.500870e+00      4.226077e+00     -4.104322e-04     
 1.700000e-04      2.500876e+00      4.226007e+00     -4.104692e-04     
 1.720000e-04      2.500882e+00      4.225939e+00     -4.105052e-04     
 1.740000e-04      2.500888e+00      4.225873e+00     -4.105403e-04     
 1.760000e-04      2.500893e+00      4.225809e+00     -4.105745e-04     
 1.780000e-04      2.500899e+00      4.225746e+00     -4.106076e-04     
 1.800000e-04      2.500904e+00      4.225686e+00     -4.106398e-04     
 1.820000e-04      2.500910e+00      4.225627e+00     -4.106710e-04     
 1.840000e-04      2.500915e+00      4.225570e+00     -4.107012e-04     
 1.860000e-04      2.500920e+00      4.225515e+00     -4.107305e-04     
 1.880000e-04      2.500925e+00      4.225461e+00     -4.107587e-04     
 1.900000e-04      2.500929e+00      4.225410e+00     -4.107860e-04     
 1.920000e-04      2.500934e+00      4.225360e+00     -4.108122e-04     
 1.940000e-04      2.500938e+00      4.225313e+00     -4.108375e-04     
 1.960000e-04      2.500942e+00      4.225267e+00     -4.108617e-04     
 1.980000e-04      2.500947e+00      4.225223e+00     -4.108849e-04     
 2.000000e-04      2.500951e+00      4.225181e+00     -4.109071e-04     
 2.020000e-04      2.500954e+00      4.225141e+00     -4.109283e-04     
 2.040000e-04      2.500958e+00      4.225103e+00     -4.109485e-04     
 2.060000e-04      2.500962e+00      4.225067e+00     -4.109676e-04     
 2.080000e-04      2.500965e+00      4.225033e+00     -4.109858e-04     
 2.100000e-04      2.500968e+00      4.225001e+00     -4.110028e-04     
 2.120000e-04      2.500971e+00      4.224971e+00     -4.110189e-04     
 2.140000e-04      2.500974e+00      4.224942e+00     -4.110339e-04     
 2.160000e-04      2.500977e+00      4.224916e+00     -4.110479e-04     
 2.180000e-04      2.500979e+00      4.224892e+00     -4.110608e-04     
 2.200000e-04      2.500982e+00      4.224869e+00     -4.110727e-04     
 2.220000e-04      2.500984e+00      4.224849e+00     -4.110835e-04     
 2.240000e-04      2.500986e+00      4.224830e+00     -4.110933e-04     
 2.260000e-04      2.500988e+00      4.224814e+00     -4.111021e-04     
 2.280000e-04      2.500990e+00      4.224799e+00     -4.111098e-04     
 2.300000e-04      2.500992e+00      4.224787e+00     -4.111164e-04     
 2.320000e-04      2.500993e+00      4.224776e+00     -4.111220e-04     
 2.340000e-04      2.500994e+00      4.224768e+00     -4.111265e-04     
 2.360000e-04      2.500996e+00      4.224761e+00     -4.111300e-04     
 2.380000e-04      2.500997e+00      4.224757e+00     -4.111324e-04     
 2.400000e-04      2.500998e+00      4.224754e+00     -4.111338e-04     
 2.420000e-04      2.500998e+00      4.224753e+00     -4.111341e-04     
 2.440000e-04      2.500999e+00      4.224755e+00     -4.111334e-04     
 2.460000e-04      2.500999e+00      4.224758e+00     -4.111316e-04     
 2.480000e-04      2.500999e+00      4.224764e+00     -4.111288e-04     
 2.500000e-04      2.501000e+00      4.224771e+00     -4.111249e-04     
 2.520000e-04      2.500999e+00      4.224780e+00     -4.111199e-04     
 2.540000e-04      2.500999e+00      4.224792e+00     -4.111139e-04     
 2.560000e-04      2.500999e+00      4.224805e+00     -4.111068e-04     
 2.580000e-04      2.500998e+00      4.224820e+00     -4.110987e-04     
 2.600000e-04      2.500998e+00      4.224837e+00     -4.110896e-04     
 2.620000e-04      2.500997e+00      4.224857e+00     -4.110794e-04     
 2.640000e-04      2.500996e+00      4.224878e+00     -4.110681e-04     
 2.660000e-04      2.500994e+00      4.224901e+00     -4.110558e-04     
 2.680000e-04      2.500993e+00      4.224926e+00     -4.110425e-04     
 2.700000e-04      2.500992e+00      4.224953e+00     -4.110281e-04     
 2.720000e-04      2.500990e+00      4.224982e+00     -4.110127e-04     
 2.740000e-04      2.500988e+00      4.225013e+00     -4.109963e-04     
 2.760000e-04      2.500986e+00      4.225046e+00     -4.109788e-04     
 2.780000e-04      2.500984e+00      4.225081e+00     -4.109603e-04     
 2.800000e-04      2.500982e+00      4.225118e+00     -4.109408e-04     
 2.820000e-04      2.500979e+00      4.225157e+00     -4.109202e-04     
 2.840000e-04      2.500977e+00      4.225197e+00     -4.108986e-04     
 2.860000e-04      2.500974e+00      4.225240e+00     -4.108761e-04     
 2.880000e-04      2.500971e+00      4.225285e+00     -4.108524e-04     
 2.900000e-04      2.500968e+00      4.225331e+00     -4.108278e-04     
 2.920000e-04      2.500965e+00      4.225379e+00     -4.108022e-04     
 2.940000e-04      2.500962e+00      4.225429e+00     -4.107756e-04     
 2.960000e-04      2.500958e+00      4.225482e+00     -4.107480e-04     
 2.980000e-04      2.500954e+00      4.225535e+00     -4.107194e-04     
 3.000000e-04      2.500951e+00      4.225591e+00     -4.106898e-04     
 3.020000e-04      2.500947e+00      4.225649e+00     -4.106592e-04     
 3.040000e-04      2.500942e+00      4.225708e+00     -4.106277e-04     
 3.060000e-04      2.500938e+00      4.225770e+00     -4.105952e-04     
 3.080000e-04      2.500934e+00      4.225833e+00     -4.105617e-04     
 3.100000e-04      2.500929e+00      4.225898e+00     -4.105272e-04     
 3.120000e-04      2.500925e+00      4.225965e+00     -4.104918e-04     
 3.140000e-04      2.500920e+00      4.226033e+00     -4.104555e-04     
 3.160000e-04      2.500915e+00      4.226103e+00     -4.104182e-04     
 3.180000e-04      2.500910e+00      4.226176e+00     -4.103799e-04     
 3.200000e-04      2.500904e+00      4.226249e+00     -4.103408e-04     
 3.220000e-04      2.500899e+00      4.226325e+00     -4.103007e-04     
 3.240000e-04      2.500893e+00      4.226402e+00     -4.102597e-04     
 3.260000e-04      2.500888e+00      4.226481e+00     -4.102177e-04     
 3.280000e-04      2.500882e+00      4.226562e+00     -4.101749e-04     
 3.300000e-04      2.500876e+00      4.226645e+00     -4.101312e-04     
 3.320000e-04      2.500870e+00      4.226729e+00     -4.100865e-04     
 3.340000e-04      2.500863e+00      4.226815e+00     -4.100410e-04     
 3.360000e-04      2.500857e+00      4.226902e+00     -4.099947e-04     
 3.380000e-04      2.500850e+00      4.226991e+00     -4.099474e-04     
 3.400000e-04      2.500844e+00      4.227082e+00     -4.098993e-04     
 3.420000e-04      2.500837e+00      4.227174e+00     -4.098503e-04     
 3.440000e-04      2.500830e+00      4.227268e+00     -4.098005e-04     
 3.460000e-04      2.500823e+00      4.227364e+00     -4.097498e-04     
 3.480000e-04      2.500816e+00      4.227461e+00     -4.096984e-04     
 3.500000e-04      2.500809e+00      4.227559e+00     -4.096460e-04     
 3.520000e-04      2.500801e+00      4.227660e+00     -4.095929e-04     
 3.540000e-04      2.500793e+00      4.227761e+00     -4.095390e-04     
 3.560000e-04      2.500786e+00      4.227864e+00     -4.094843e-04     
 3.580000e-04      2.500778e+00      4.227969e+00     -4.094288e-04     
 3.600000e-04      2.500770e+00      4.228075e+00     -4.093725e-04     
 3.620000e-04      2.500762e+00      4.228183e+00     -4.093154e-04     
 3.640000e-04      2.500754e+00      4.228292e+00     -4.092576e-04     
 3.660000e-04      2.500745e+00      4.228402e+00     -4.091990e-04     
 3.680000e-04      2.500737e+00      4.228514e+00     -4.091397e-04     
 3.700000e-04      2.500728e+00      4.228627e+00     -4.090797e-04     
 3.720000e-04      2.500720e+00      4.228742e+00     -4.090189e-04     
 3.740000e-04      2.500711e+00      4.228858e+00     -4.089574e-04     
 3.760000e-04      2.500702e+00      4.228975e+00     -4.088952e-04     
 3.780000e-04      2.500693e+00      4.229094e+00     -4.088324e-04     
 3.800000e-04      2.500684e+00      4.229214e+00     -4.087688e-04     
 3.820000e-04      2.500675e+00      4.229335e+00     -4.087046e-04     
 3.840000e-04      2.500666e+00      4.229457e+00     -4.086397e-04     
 3.860000e-04      2.500656e+00      4.229581e+00     -4.085741e-04     
 3.880000e-04      2.500647e+00      4.229705e+00     -4.085080e-04     
 3.900000e-04      2.500637e+00      4.229831e+00     -4.084411e-04     
 3.920000e-04      2.500627e+00      4.229959e+00     -4.083737e-04     
 3.940000e-04      2.500617e+00      4.230087e+00     -4.083057e-04     
 3.960000e-04      2.500607e+00      4.230216e+00     -4.082370e-04     
 3.980000e-04      2.500597e+00      4.230347e+00     -4.081678e-04     
 4.000000e-04      2.500587e+00      4.230479e+00     -4.080980e-04     
 4.020000e-04      2.500577e+00      4.230611e+00     -4.080276e-04     
 4.040000e-04      2.500567e+00      4.230745e+00     -4.079567e-04     
 4.060000e-04      2.500556e+00      4.230880e+00     -4.078852e-04     
 4.080000e-04      2.500546e+00      4.231015e+00     -4.078132e-04     
 4.100000e-04      2.500535e+00      4.231152e+00     -4.077407e-04     
 4.120000e-04      2.500525e+00      4.231290e+00     -4.076676e-04     
 4.140000e-04      2.500514e+00      4.231429e+00     -4.075941e-04     
 4.160000e-04      2.500503e+00      4.231568e+00     -4.075201e-04     
 4.180000e-04      2.500492e+00      4.231709e+00     -4.074456e-04     
 4.200000e-04      2.500481e+00      4.231850e+00     -4.073707e-04     
 4.220000e-04      2.500470e+00      4.231992e+00     -4.072953e-04     
 4.240000e-04      2.500459e+00      4.232135e+00     -4.072195e-04     
 4.260000e-04      2.500448e+00      4.232279e+00     -4.071432e-04     
 4.280000e-04      2.500437e+00      4.232423e+00     -4.070665e-04     
 4.300000e-04      2.500425e+00      4.232569e+00     -4.069895e-04     
 4.320000e-04      2.500414e+00      4.232715e+00     -4.069120e-04     
 4.340000e-04      2.500402e+00      4.232862e+00     -4.068342e-04     
 4.360000e-04      2.500391e+00      4.233009e+00     -4.067560e-04     
 4.380000e-04      2.500379e+00      4.233157e+00     -4.066774e-04     
 4.400000e-04      2.500368e+00      4.233306e+00     -4.065986e-04     
 4.420000e-04      2.500356e+00      4.233455e+00     -4.065193e-04     
 4.440000e-04      2.500344e+00      4.233605e+00     -4.064398e-04     
 4.460000e-04      2.500332e+00      4.233756e+00     -4.063600e-04     
 4.480000e-04      2.500320e+00      4.233907e+00     -4.062799e-04     
 4.500000e-04      2.500309e+00      4.234058e+00     -4.061995e-04     
 4.520000e-04      2.500297e+00      4.234210e+00     -4.061189e-04     
 4.540000e-04      2.500285e+00      4.234363e+00     -4.060380e-04     
 4.560000e-04      2.500272e+00      4.234516e+00     -4.059568e-04     
 4.580000e-04      2.500260e+00      4.234669e+00     -4.058755e-04     
 4.600000e-04      2.500248e+00      4.234823e+00     -4.057939e-04     
 4.620000e-04      2.500236e+00      4.234977e+00     -4.057121e-04     
 4.640000e-04      2.500224e+00      4.235132e+00     -4.056302e-04     
 4.660000e-04      2.500212e+00      4.235287e+00     -4.055480e-04     
 4.680000e-04      2.500199e+00      4.235442e+00     -4.054658e-04     
 4.700000e-04      2.500187e+00      4.235597e+00     -4.053833e-04     
 4.720000e-04      2.500175e+00      4.235753e+00     -4.053008e-04     
 4.740000e-04      2.500162e+00      4.235909e+00     -4.052181e-04     
 4.760000e-04      2.500150e+00      4.236065e+00     -4.051353e-04     
 4.780000e-04      2.500137e+00      4.236221e+00     -4.050524e-04     
 4.800000e-04      2.500125e+00      4.236378e+00     -4.049695e-04     
 4.820000e-04      2.500112e+00      4.236534e+00     -4.048864e-04     
 4.840000e-04      2.500100e+00      4.236691e+00     -4.048034e-04     
 4.860000e-04      2.500087e+00      4.236848e+00     -4.047202e-04     
 4.880000e-04      2.500075e+00      4.237004e+00     -4.046371e-04     
 4.900000e-04      2.500062e+00      4.237161e+00     -4.045539e-04     
 4.920000e-04      2.500050e+00      4.237318e+00     -4.044708e-04     
 4.940000e-04      2.500037e+00      4.237475e+00     -4.043876e-04     
 4.960000e-04      2.500025e+00      4.237632e+00     -4.043045e-04     
 4.980000e-04      2.500012e+00      4.237788e+00     -4.042214e-04     
 5.000000e-04      2.500000e+00      4.237945e+00     -4.041384e-04     
 5.020000e-04      2.499987e+00      4.238101e+00     -4.040554e-04     
 5.040000e-04      2.499974e+00      4.238258e+00     -4.039725e-04     
 5.060000e-04      2.499962e+00      4.238414e+00     -4.038897e-04     
 5.080000e-04      2.499949e+00      4.238570e+00     -4.038070e-04     
 5.100000e-04      2.499937e+00      4.238725e+00     -4.037244e-04     
 5.120000e-04      2.499924e+00      4.238881e+00     -4.036420e-04     
 5.140000e-04      2.499912e+00      4.239036e+00     -4.035596e-04     
 5.160000e-04      2.499899e+00      4.239191e+00     -4.034775e-04     
 5.180000e-04      2.499887e+00      4.239346e+00     -4.033955e-04     
 5.200000e-04      2.499874e+00      4.239500e+00     -4.033137e-04     
 5.220000e-04      2.499862e+00      4.239654e+00     -4.032321e-04     
 5.240000e-04      2.499849e+00      4.239807e+00     -4.031507e-04     
 5.260000e-04      2.499837e+00      4.239960e+00     -4.030695e-04     
 5.280000e-04      2.499824e+00      4.240113e+00     -4.029886e-04     
 5.300000e-04      2.499812e+00      4.240265e+00     -4.029079e-04     
 5.320000e-04      2.499800e+00      4.240417e+00     -4.028274e-04     
 5.340000e-04      2.499787e+00      4.240568e+00     -4.027473e-04     
 5.360000e-04      2.499775e+00      4.240719e+00     -4.026674e-04     
 5.380000e-04      2.499763e+00      4.240869e+00     -4.025878e-04     
 5.400000e-04      2.499751e+00      4.241018e+00     -4.025085e-04     
 5.420000e-04      2.499739e+00      4.241167e+00     -4.024296e-04     
 5.440000e-04      2.499727e+00      4.241315e+00     -4.023509e-04     
