
time (s)          v("VIN" ?resul    v("VOUT" ?resu    getData("VDD:p

 0.000000e+00      2.500000e+00      8.731520e-01     -2.582994e-04     
 2.000000e-06      2.500012e+00      8.731490e-01     -2.582996e-04     
 4.000000e-06      2.500025e+00      8.731443e-01     -2.582999e-04     
 6.000000e-06      2.500037e+00      8.731389e-01     -2.583002e-04     
 8.000000e-06      2.500050e+00      8.731332e-01     -2.583006e-04     
 1.000000e-05      2.500062e+00      8.731276e-01     -2.583009e-04     
 1.200000e-05      2.500075e+00      8.731220e-01     -2.583013e-04     
 1.400000e-05      2.500087e+00      8.731163e-01     -2.583016e-04     
 1.600000e-05      2.500100e+00      8.731107e-01     -2.583020e-04     
 1.800000e-05      2.500112e+00      8.731051e-01     -2.583023e-04     
 2.000000e-05      2.500125e+00      8.730995e-01     -2.583027e-04     
 2.200000e-05      2.500137e+00      8.730939e-01     -2.583030e-04     
 2.400000e-05      2.500150e+00      8.730884e-01     -2.583034e-04     
 2.600000e-05      2.500162e+00      8.730828e-01     -2.583037e-04     
 2.800000e-05      2.500175e+00      8.730772e-01     -2.583041e-04     
 3.000000e-05      2.500187e+00      8.730717e-01     -2.583044e-04     
 3.200000e-05      2.500199e+00      8.730662e-01     -2.583048e-04     
 3.400000e-05      2.500212e+00      8.730607e-01     -2.583051e-04     
 3.600000e-05      2.500224e+00      8.730552e-01     -2.583055e-04     
 3.800000e-05      2.500236e+00      8.730497e-01     -2.583058e-04     
 4.000000e-05      2.500248e+00      8.730443e-01     -2.583061e-04     
 4.200000e-05      2.500260e+00      8.730388e-01     -2.583065e-04     
 4.400000e-05      2.500272e+00      8.730334e-01     -2.583068e-04     
 4.600000e-05      2.500285e+00      8.730281e-01     -2.583072e-04     
 4.800000e-05      2.500297e+00      8.730227e-01     -2.583075e-04     
 5.000000e-05      2.500309e+00      8.730173e-01     -2.583078e-04     
 5.200000e-05      2.500320e+00      8.730120e-01     -2.583082e-04     
 5.400000e-05      2.500332e+00      8.730067e-01     -2.583085e-04     
 5.600000e-05      2.500344e+00      8.730015e-01     -2.583088e-04     
 5.800000e-05      2.500356e+00      8.729962e-01     -2.583091e-04     
 6.000000e-05      2.500368e+00      8.729910e-01     -2.583095e-04     
 6.200000e-05      2.500379e+00      8.729858e-01     -2.583098e-04     
 6.400000e-05      2.500391e+00      8.729807e-01     -2.583101e-04     
 6.600000e-05      2.500402e+00      8.729755e-01     -2.583104e-04     
 6.800000e-05      2.500414e+00      8.729704e-01     -2.583108e-04     
 7.000000e-05      2.500425e+00      8.729654e-01     -2.583111e-04     
 7.200000e-05      2.500437e+00      8.729603e-01     -2.583114e-04     
 7.400000e-05      2.500448e+00      8.729553e-01     -2.583117e-04     
 7.600000e-05      2.500459e+00      8.729504e-01     -2.583120e-04     
 7.800000e-05      2.500470e+00      8.729454e-01     -2.583123e-04     
 8.000000e-05      2.500481e+00      8.729405e-01     -2.583126e-04     
 8.200000e-05      2.500492e+00      8.729357e-01     -2.583129e-04     
 8.400000e-05      2.500503e+00      8.729309e-01     -2.583132e-04     
 8.600000e-05      2.500514e+00      8.729261e-01     -2.583135e-04     
 8.800000e-05      2.500525e+00      8.729213e-01     -2.583138e-04     
 9.000000e-05      2.500535e+00      8.729166e-01     -2.583141e-04     
 9.200000e-05      2.500546e+00      8.729119e-01     -2.583144e-04     
 9.400000e-05      2.500556e+00      8.729073e-01     -2.583147e-04     
 9.600000e-05      2.500567e+00      8.729027e-01     -2.583150e-04     
 9.800000e-05      2.500577e+00      8.728981e-01     -2.583153e-04     
 1.000000e-04      2.500587e+00      8.728936e-01     -2.583156e-04     
 1.020000e-04      2.500597e+00      8.728892e-01     -2.583159e-04     
 1.040000e-04      2.500607e+00      8.728847e-01     -2.583161e-04     
 1.060000e-04      2.500617e+00      8.728804e-01     -2.583164e-04     
 1.080000e-04      2.500627e+00      8.728760e-01     -2.583167e-04     
 1.100000e-04      2.500637e+00      8.728717e-01     -2.583169e-04     
 1.120000e-04      2.500647e+00      8.728675e-01     -2.583172e-04     
 1.140000e-04      2.500656e+00      8.728633e-01     -2.583175e-04     
 1.160000e-04      2.500666e+00      8.728592e-01     -2.583177e-04     
 1.180000e-04      2.500675e+00      8.728551e-01     -2.583180e-04     
 1.200000e-04      2.500684e+00      8.728510e-01     -2.583182e-04     
 1.220000e-04      2.500693e+00      8.728470e-01     -2.583185e-04     
 1.240000e-04      2.500702e+00      8.728430e-01     -2.583187e-04     
 1.260000e-04      2.500711e+00      8.728391e-01     -2.583190e-04     
 1.280000e-04      2.500720e+00      8.728353e-01     -2.583192e-04     
 1.300000e-04      2.500728e+00      8.728315e-01     -2.583195e-04     
 1.320000e-04      2.500737e+00      8.728277e-01     -2.583197e-04     
 1.340000e-04      2.500745e+00      8.728240e-01     -2.583199e-04     
 1.360000e-04      2.500754e+00      8.728204e-01     -2.583202e-04     
 1.380000e-04      2.500762e+00      8.728168e-01     -2.583204e-04     
 1.400000e-04      2.500770e+00      8.728133e-01     -2.583206e-04     
 1.420000e-04      2.500778e+00      8.728098e-01     -2.583208e-04     
 1.440000e-04      2.500786e+00      8.728064e-01     -2.583210e-04     
 1.460000e-04      2.500793e+00      8.728030e-01     -2.583212e-04     
 1.480000e-04      2.500801e+00      8.727997e-01     -2.583215e-04     
 1.500000e-04      2.500809e+00      8.727964e-01     -2.583217e-04     
 1.520000e-04      2.500816e+00      8.727932e-01     -2.583219e-04     
 1.540000e-04      2.500823e+00      8.727901e-01     -2.583221e-04     
 1.560000e-04      2.500830e+00      8.727870e-01     -2.583222e-04     
 1.580000e-04      2.500837e+00      8.727840e-01     -2.583224e-04     
 1.600000e-04      2.500844e+00      8.727810e-01     -2.583226e-04     
 1.620000e-04      2.500850e+00      8.727781e-01     -2.583228e-04     
 1.640000e-04      2.500857e+00      8.727753e-01     -2.583230e-04     
 1.660000e-04      2.500863e+00      8.727725e-01     -2.583232e-04     
 1.680000e-04      2.500870e+00      8.727698e-01     -2.583233e-04     
 1.700000e-04      2.500876e+00      8.727671e-01     -2.583235e-04     
 1.720000e-04      2.500882e+00      8.727645e-01     -2.583237e-04     
 1.740000e-04      2.500888e+00      8.727620e-01     -2.583238e-04     
 1.760000e-04      2.500893e+00      8.727595e-01     -2.583240e-04     
 1.780000e-04      2.500899e+00      8.727571e-01     -2.583241e-04     
 1.800000e-04      2.500904e+00      8.727547e-01     -2.583243e-04     
 1.820000e-04      2.500910e+00      8.727525e-01     -2.583244e-04     
 1.840000e-04      2.500915e+00      8.727502e-01     -2.583245e-04     
 1.860000e-04      2.500920e+00      8.727481e-01     -2.583247e-04     
 1.880000e-04      2.500925e+00      8.727460e-01     -2.583248e-04     
 1.900000e-04      2.500929e+00      8.727439e-01     -2.583249e-04     
 1.920000e-04      2.500934e+00      8.727420e-01     -2.583251e-04     
 1.940000e-04      2.500938e+00      8.727401e-01     -2.583252e-04     
 1.960000e-04      2.500942e+00      8.727382e-01     -2.583253e-04     
 1.980000e-04      2.500947e+00      8.727365e-01     -2.583254e-04     
 2.000000e-04      2.500951e+00      8.727348e-01     -2.583255e-04     
 2.020000e-04      2.500954e+00      8.727331e-01     -2.583256e-04     
 2.040000e-04      2.500958e+00      8.727316e-01     -2.583257e-04     
 2.060000e-04      2.500962e+00      8.727301e-01     -2.583258e-04     
 2.080000e-04      2.500965e+00      8.727286e-01     -2.583259e-04     
 2.100000e-04      2.500968e+00      8.727273e-01     -2.583260e-04     
 2.120000e-04      2.500971e+00      8.727260e-01     -2.583261e-04     
 2.140000e-04      2.500974e+00      8.727247e-01     -2.583261e-04     
 2.160000e-04      2.500977e+00      8.727236e-01     -2.583262e-04     
 2.180000e-04      2.500979e+00      8.727225e-01     -2.583263e-04     
 2.200000e-04      2.500982e+00      8.727214e-01     -2.583263e-04     
 2.220000e-04      2.500984e+00      8.727205e-01     -2.583264e-04     
 2.240000e-04      2.500986e+00      8.727196e-01     -2.583265e-04     
 2.260000e-04      2.500988e+00      8.727188e-01     -2.583265e-04     
 2.280000e-04      2.500990e+00      8.727180e-01     -2.583266e-04     
 2.300000e-04      2.500992e+00      8.727173e-01     -2.583266e-04     
 2.320000e-04      2.500993e+00      8.727167e-01     -2.583266e-04     
 2.340000e-04      2.500994e+00      8.727162e-01     -2.583267e-04     
 2.360000e-04      2.500996e+00      8.727157e-01     -2.583267e-04     
 2.380000e-04      2.500997e+00      8.727153e-01     -2.583267e-04     
 2.400000e-04      2.500998e+00      8.727149e-01     -2.583268e-04     
 2.420000e-04      2.500998e+00      8.727147e-01     -2.583268e-04     
 2.440000e-04      2.500999e+00      8.727145e-01     -2.583268e-04     
 2.460000e-04      2.500999e+00      8.727143e-01     -2.583268e-04     
 2.480000e-04      2.500999e+00      8.727143e-01     -2.583268e-04     
 2.500000e-04      2.501000e+00      8.727143e-01     -2.583268e-04     
 2.520000e-04      2.500999e+00      8.727144e-01     -2.583268e-04     
 2.540000e-04      2.500999e+00      8.727145e-01     -2.583268e-04     
 2.560000e-04      2.500999e+00      8.727147e-01     -2.583268e-04     
 2.580000e-04      2.500998e+00      8.727150e-01     -2.583268e-04     
 2.600000e-04      2.500998e+00      8.727154e-01     -2.583267e-04     
 2.620000e-04      2.500997e+00      8.727158e-01     -2.583267e-04     
 2.640000e-04      2.500996e+00      8.727163e-01     -2.583267e-04     
 2.660000e-04      2.500994e+00      8.727168e-01     -2.583266e-04     
 2.680000e-04      2.500993e+00      8.727175e-01     -2.583266e-04     
 2.700000e-04      2.500992e+00      8.727182e-01     -2.583266e-04     
 2.720000e-04      2.500990e+00      8.727189e-01     -2.583265e-04     
 2.740000e-04      2.500988e+00      8.727198e-01     -2.583265e-04     
 2.760000e-04      2.500986e+00      8.727207e-01     -2.583264e-04     
 2.780000e-04      2.500984e+00      8.727216e-01     -2.583263e-04     
 2.800000e-04      2.500982e+00      8.727227e-01     -2.583263e-04     
 2.820000e-04      2.500979e+00      8.727238e-01     -2.583262e-04     
 2.840000e-04      2.500977e+00      8.727250e-01     -2.583261e-04     
 2.860000e-04      2.500974e+00      8.727262e-01     -2.583260e-04     
 2.880000e-04      2.500971e+00      8.727275e-01     -2.583260e-04     
 2.900000e-04      2.500968e+00      8.727289e-01     -2.583259e-04     
 2.920000e-04      2.500965e+00      8.727304e-01     -2.583258e-04     
 2.940000e-04      2.500962e+00      8.727319e-01     -2.583257e-04     
 2.960000e-04      2.500958e+00      8.727334e-01     -2.583256e-04     
 2.980000e-04      2.500954e+00      8.727351e-01     -2.583255e-04     
 3.000000e-04      2.500951e+00      8.727368e-01     -2.583254e-04     
 3.020000e-04      2.500947e+00      8.727386e-01     -2.583253e-04     
 3.040000e-04      2.500942e+00      8.727404e-01     -2.583252e-04     
 3.060000e-04      2.500938e+00      8.727423e-01     -2.583250e-04     
 3.080000e-04      2.500934e+00      8.727443e-01     -2.583249e-04     
 3.100000e-04      2.500929e+00      8.727464e-01     -2.583248e-04     
 3.120000e-04      2.500925e+00      8.727485e-01     -2.583247e-04     
 3.140000e-04      2.500920e+00      8.727506e-01     -2.583245e-04     
 3.160000e-04      2.500915e+00      8.727529e-01     -2.583244e-04     
 3.180000e-04      2.500910e+00      8.727552e-01     -2.583242e-04     
 3.200000e-04      2.500904e+00      8.727575e-01     -2.583241e-04     
 3.220000e-04      2.500899e+00      8.727600e-01     -2.583239e-04     
 3.240000e-04      2.500893e+00      8.727625e-01     -2.583238e-04     
 3.260000e-04      2.500888e+00      8.727650e-01     -2.583236e-04     
 3.280000e-04      2.500882e+00      8.727676e-01     -2.583235e-04     
 3.300000e-04      2.500876e+00      8.727703e-01     -2.583233e-04     
 3.320000e-04      2.500870e+00      8.727730e-01     -2.583231e-04     
 3.340000e-04      2.500863e+00      8.727758e-01     -2.583229e-04     
 3.360000e-04      2.500857e+00      8.727787e-01     -2.583228e-04     
 3.380000e-04      2.500850e+00      8.727816e-01     -2.583226e-04     
 3.400000e-04      2.500844e+00      8.727846e-01     -2.583224e-04     
 3.420000e-04      2.500837e+00      8.727876e-01     -2.583222e-04     
 3.440000e-04      2.500830e+00      8.727907e-01     -2.583220e-04     
 3.460000e-04      2.500823e+00      8.727938e-01     -2.583218e-04     
 3.480000e-04      2.500816e+00      8.727970e-01     -2.583216e-04     
 3.500000e-04      2.500809e+00      8.728003e-01     -2.583214e-04     
 3.520000e-04      2.500801e+00      8.728036e-01     -2.583212e-04     
 3.540000e-04      2.500793e+00      8.728070e-01     -2.583210e-04     
 3.560000e-04      2.500786e+00      8.728104e-01     -2.583208e-04     
 3.580000e-04      2.500778e+00      8.728139e-01     -2.583206e-04     
 3.600000e-04      2.500770e+00      8.728175e-01     -2.583203e-04     
 3.620000e-04      2.500762e+00      8.728211e-01     -2.583201e-04     
 3.640000e-04      2.500754e+00      8.728247e-01     -2.583199e-04     
 3.660000e-04      2.500745e+00      8.728284e-01     -2.583197e-04     
 3.680000e-04      2.500737e+00      8.728322e-01     -2.583194e-04     
 3.700000e-04      2.500728e+00      8.728360e-01     -2.583192e-04     
 3.720000e-04      2.500720e+00      8.728399e-01     -2.583189e-04     
 3.740000e-04      2.500711e+00      8.728438e-01     -2.583187e-04     
 3.760000e-04      2.500702e+00      8.728477e-01     -2.583184e-04     
 3.780000e-04      2.500693e+00      8.728517e-01     -2.583182e-04     
 3.800000e-04      2.500684e+00      8.728558e-01     -2.583179e-04     
 3.820000e-04      2.500675e+00      8.728599e-01     -2.583177e-04     
 3.840000e-04      2.500666e+00      8.728641e-01     -2.583174e-04     
 3.860000e-04      2.500656e+00      8.728683e-01     -2.583172e-04     
 3.880000e-04      2.500647e+00      8.728725e-01     -2.583169e-04     
 3.900000e-04      2.500637e+00      8.728768e-01     -2.583166e-04     
 3.920000e-04      2.500627e+00      8.728812e-01     -2.583164e-04     
 3.940000e-04      2.500617e+00      8.728855e-01     -2.583161e-04     
 3.960000e-04      2.500607e+00      8.728900e-01     -2.583158e-04     
 3.980000e-04      2.500597e+00      8.728945e-01     -2.583155e-04     
 4.000000e-04      2.500587e+00      8.728990e-01     -2.583152e-04     
 4.020000e-04      2.500577e+00      8.729035e-01     -2.583150e-04     
 4.040000e-04      2.500567e+00      8.729081e-01     -2.583147e-04     
 4.060000e-04      2.500556e+00      8.729128e-01     -2.583144e-04     
 4.080000e-04      2.500546e+00      8.729174e-01     -2.583141e-04     
 4.100000e-04      2.500535e+00      8.729222e-01     -2.583138e-04     
 4.120000e-04      2.500525e+00      8.729269e-01     -2.583135e-04     
 4.140000e-04      2.500514e+00      8.729317e-01     -2.583132e-04     
 4.160000e-04      2.500503e+00      8.729365e-01     -2.583129e-04     
 4.180000e-04      2.500492e+00      8.729414e-01     -2.583126e-04     
 4.200000e-04      2.500481e+00      8.729463e-01     -2.583123e-04     
 4.220000e-04      2.500470e+00      8.729513e-01     -2.583120e-04     
 4.240000e-04      2.500459e+00      8.729562e-01     -2.583117e-04     
 4.260000e-04      2.500448e+00      8.729612e-01     -2.583113e-04     
 4.280000e-04      2.500437e+00      8.729663e-01     -2.583110e-04     
 4.300000e-04      2.500425e+00      8.729713e-01     -2.583107e-04     
 4.320000e-04      2.500414e+00      8.729764e-01     -2.583104e-04     
 4.340000e-04      2.500402e+00      8.729816e-01     -2.583101e-04     
 4.360000e-04      2.500391e+00      8.729867e-01     -2.583097e-04     
 4.380000e-04      2.500379e+00      8.729919e-01     -2.583094e-04     
 4.400000e-04      2.500368e+00      8.729971e-01     -2.583091e-04     
 4.420000e-04      2.500356e+00      8.730024e-01     -2.583088e-04     
 4.440000e-04      2.500344e+00      8.730077e-01     -2.583084e-04     
 4.460000e-04      2.500332e+00      8.730129e-01     -2.583081e-04     
 4.480000e-04      2.500320e+00      8.730183e-01     -2.583078e-04     
 4.500000e-04      2.500309e+00      8.730236e-01     -2.583074e-04     
 4.520000e-04      2.500297e+00      8.730290e-01     -2.583071e-04     
 4.540000e-04      2.500285e+00      8.730344e-01     -2.583068e-04     
 4.560000e-04      2.500272e+00      8.730398e-01     -2.583064e-04     
 4.580000e-04      2.500260e+00      8.730452e-01     -2.583061e-04     
 4.600000e-04      2.500248e+00      8.730507e-01     -2.583057e-04     
 4.620000e-04      2.500236e+00      8.730561e-01     -2.583054e-04     
 4.640000e-04      2.500224e+00      8.730616e-01     -2.583051e-04     
 4.660000e-04      2.500212e+00      8.730671e-01     -2.583047e-04     
 4.680000e-04      2.500199e+00      8.730726e-01     -2.583044e-04     
 4.700000e-04      2.500187e+00      8.730782e-01     -2.583040e-04     
 4.720000e-04      2.500175e+00      8.730837e-01     -2.583037e-04     
 4.740000e-04      2.500162e+00      8.730893e-01     -2.583033e-04     
 4.760000e-04      2.500150e+00      8.730949e-01     -2.583030e-04     
 4.780000e-04      2.500137e+00      8.731005e-01     -2.583026e-04     
 4.800000e-04      2.500125e+00      8.731060e-01     -2.583023e-04     
 4.820000e-04      2.500112e+00      8.731117e-01     -2.583019e-04     
 4.840000e-04      2.500100e+00      8.731173e-01     -2.583016e-04     
 4.860000e-04      2.500087e+00      8.731229e-01     -2.583012e-04     
 4.880000e-04      2.500075e+00      8.731285e-01     -2.583009e-04     
 4.900000e-04      2.500062e+00      8.731342e-01     -2.583005e-04     
 4.920000e-04      2.500050e+00      8.731398e-01     -2.583002e-04     
 4.940000e-04      2.500037e+00      8.731455e-01     -2.582998e-04     
 4.960000e-04      2.500025e+00      8.731511e-01     -2.582995e-04     
 4.980000e-04      2.500012e+00      8.731568e-01     -2.582991e-04     
 5.000000e-04      2.500000e+00      8.731625e-01     -2.582987e-04     
 5.020000e-04      2.499987e+00      8.731681e-01     -2.582984e-04     
 5.040000e-04      2.499974e+00      8.731738e-01     -2.582980e-04     
 5.060000e-04      2.499962e+00      8.731794e-01     -2.582977e-04     
 5.080000e-04      2.499949e+00      8.731851e-01     -2.582973e-04     
 5.100000e-04      2.499937e+00      8.731908e-01     -2.582970e-04     
 5.120000e-04      2.499924e+00      8.731964e-01     -2.582966e-04     
 5.140000e-04      2.499912e+00      8.732021e-01     -2.582963e-04     
 5.160000e-04      2.499899e+00      8.732077e-01     -2.582959e-04     
 5.180000e-04      2.499887e+00      8.732133e-01     -2.582956e-04     
 5.200000e-04      2.499874e+00      8.732190e-01     -2.582952e-04     
 5.220000e-04      2.499862e+00      8.732246e-01     -2.582949e-04     
 5.240000e-04      2.499849e+00      8.732302e-01     -2.582945e-04     
 5.260000e-04      2.499837e+00      8.732358e-01     -2.582942e-04     
 5.280000e-04      2.499824e+00      8.732414e-01     -2.582938e-04     
 5.300000e-04      2.499812e+00      8.732470e-01     -2.582935e-04     
 5.320000e-04      2.499800e+00      8.732526e-01     -2.582931e-04     
 5.340000e-04      2.499787e+00      8.732581e-01     -2.582928e-04     
 5.360000e-04      2.499775e+00      8.732637e-01     -2.582924e-04     
 5.380000e-04      2.499763e+00      8.732692e-01     -2.582921e-04     
 5.400000e-04      2.499751e+00      8.732747e-01     -2.582917e-04     
 5.420000e-04      2.499739e+00      8.732802e-01     -2.582914e-04     
 5.440000e-04      2.499727e+00      8.732857e-01     -2.582910e-04     
